(1579465197.861953) can0 039#000C
(1579465197.863413) can0 136#000000000000000E
(1579465197.863645) can0 13A#000000000000000A
(1579465197.863871) can0 13F#016201630032000D
(1579465197.864126) can0 17C#0000041A00000005
(1579465197.864311) can0 1DC#02041A2B
(1579465197.865883) can0 1A4#0000000000000036
(1579465197.865981) can0 1AA#7FFF007FFF006939
(1579465197.866261) can0 158#0000040300000012
(1579465197.866439) can0 188#000000010006
(1579465197.866661) can0 1B0#000F0002000038
(1579465197.866914) can0 1D0#000000000000000A
(1579465197.869054) can0 333#0000000000001E
(1579465197.869268) can0 095#808008040000001D
(1579465197.871096) can0 164#0200002A8E000027
(1579465197.871935) can0 039#001B
(1579465197.873506) can0 136#000000000000001D
(1579465197.873672) can0 13A#0000000000000019
(1579465197.873896) can0 13F#0162016300000011
(1579465197.874140) can0 17C#0000041A00000014
(1579465197.876043) can0 158#0000040400000020
(1579465197.876227) can0 188#000000010015
(1579465197.879792) can0 095#8080080800000028
(1579465197.880914) can0 164#0200002A8F000035
(1579465197.881956) can0 039#002A
(1579465197.883468) can0 136#000000000000002C
(1579465197.883707) can0 13A#0000000000000028
(1579465197.883887) can0 13F#0162016300000020
(1579465197.884138) can0 17C#0000041A00000023
(1579465197.884321) can0 1DC#02041A3A
(1579465197.884472) can0 320#000030
(1579465197.884698) can0 324#6235098A00000031
(1579465197.885888) can0 1A4#0000000000000009
(1579465197.885993) can0 1AA#7FFF007FFF00690C
(1579465197.886259) can0 158#000004040000003F
(1579465197.886394) can0 188#000000010024
(1579465197.886632) can0 1B0#000F000200000B
(1579465197.886883) can0 1D0#000000000000000A
(1579465197.889668) can0 095#8080080800000037
(1579465197.891144) can0 164#0200002A8E000009
(1579465197.891938) can0 039#0039
(1579465197.893515) can0 136#000000000000003B
(1579465197.893667) can0 13A#0000000000000037
(1579465197.893930) can0 13F#016A016300000037
(1579465197.894149) can0 17C#0000041A00000032
(1579465197.896099) can0 158#0000040400000002
(1579465197.896357) can0 188#000000010033
(1579465197.899998) can0 095#808008080000000A
(1579465197.901825) can0 164#0200002A8E000018
(1579465197.901918) can0 039#000C
(1579465197.902155) can0 294#0496000392B70006
(1579465197.903406) can0 136#000000000000000E
(1579465197.903638) can0 13A#000000000000000A
(1579465197.903873) can0 13F#016501630000000F
(1579465197.904124) can0 17C#0000041A00000005
(1579465197.904320) can0 1DC#02041A0D
(1579465197.905965) can0 1A4#0000000000000018
(1579465197.906051) can0 1AA#7FFF007FFF00691B
(1579465197.906317) can0 158#0000040400000011
(1579465197.906392) can0 188#000000010006
(1579465197.906639) can0 1B0#000F000200001A
(1579465197.906888) can0 1D0#000000000000000A
(1579465197.910350) can0 095#8080080800000019
(1579465197.910919) can0 164#0200002A8E000027
(1579465197.911917) can0 039#001B
(1579465197.912911) can0 305#8080
(1579465197.913391) can0 136#000000000000001D
(1579465197.913635) can0 13A#0000000000000019
(1579465197.913874) can0 13F#016501630000001E
(1579465197.914126) can0 17C#0000041A00000014
(1579465197.916028) can0 158#000004050000002F
(1579465197.916326) can0 188#000000010015
(1579465197.920367) can0 095#808008040000002C
(1579465197.920861) can0 164#0200002A8E000036
(1579465197.921903) can0 039#002A
(1579465197.923387) can0 136#000000000000002C
(1579465197.923634) can0 13A#0000000000000028
(1579465197.923869) can0 13F#01650166FFBA0027
(1579465197.924118) can0 17C#000004130000002A
(1579465197.924283) can0 1DC#02041313
(1579465197.925694) can0 1A4#0000000000000027
(1579465197.925938) can0 1AA#7FFF007FFF00682B
(1579465197.926191) can0 158#000004040000003F
(1579465197.926391) can0 188#000000010024
(1579465197.926613) can0 1B0#000F0002000029
(1579465197.926863) can0 1D0#000000000000000A
(1579465197.930612) can0 095#808008040000003B
(1579465197.930901) can0 164#0200002A8E000009
(1579465197.931904) can0 039#0039
(1579465197.933380) can0 136#000000000000003B
(1579465197.933626) can0 13A#0000000000000037
(1579465197.933868) can0 13F#0165016600000039
(1579465197.934111) can0 17C#0000041300000039
(1579465197.935988) can0 158#0000040400000002
(1579465197.936215) can0 188#000000010033
(1579465197.940645) can0 164#0200002A8E000018
(1579465197.940883) can0 095#808008080000000A
(1579465197.941121) can0 294#0496000392B70015
(1579465197.941424) can0 374#2C00000000001B
(1579465197.941730) can0 377#0468CE3467003112
(1579465197.941900) can0 039#000C
(1579465197.942139) can0 378#1042081F1A200019
(1579465197.942473) can0 405#000004000000001A
(1579465197.942772) can0 428#0004000000191B
(1579465197.943381) can0 136#000000000000000E
(1579465197.943625) can0 13A#000000000000000A
(1579465197.943867) can0 13F#016501660000000C
(1579465197.944117) can0 17C#000004130000000C
(1579465197.944280) can0 1DC#02041322
(1579465197.945763) can0 1A4#0000000000000036
(1579465197.945988) can0 1AA#7FFF007FFF00683A
(1579465197.946248) can0 158#0000040300000012
(1579465197.946443) can0 188#000000010006
(1579465197.946665) can0 1B0#000F0002000038
(1579465197.946916) can0 1D0#000000000000000A
(1579465197.951047) can0 164#0200002A8E000027
(1579465197.951250) can0 095#8080080800000019
(1579465197.951900) can0 039#001B
(1579465197.953395) can0 136#000000000000001D
(1579465197.953626) can0 13A#0000000000000019
(1579465197.953864) can0 13F#01650167FFEC0012
(1579465197.954110) can0 17C#000004110000001D
(1579465197.956009) can0 158#0000040300000021
(1579465197.956244) can0 188#000000010015
(1579465197.960654) can0 164#0200002A8E000036
(1579465197.961345) can0 095#8080080800000028
(1579465197.961901) can0 039#002A
(1579465197.963383) can0 136#000000000000002C
(1579465197.963632) can0 13A#0000000000000028
(1579465197.963873) can0 13F#0165016700000029
(1579465197.964121) can0 17C#000004110000002C
(1579465197.964303) can0 1DC#02041133
(1579465197.965707) can0 1A4#0000000000000009
(1579465197.965952) can0 1AA#7FFF007FFF00690C
(1579465197.966215) can0 158#0000040200000031
(1579465197.966404) can0 188#000000010024
(1579465197.966628) can0 1B0#000F000200000B
(1579465197.966878) can0 1D0#000000000000000A
(1579465197.968974) can0 333#0000000000002D
(1579465197.970886) can0 164#0200002A8E000009
(1579465197.971574) can0 095#8080080800000037
(1579465197.971912) can0 039#0039
(1579465197.973379) can0 136#000000000000003B
(1579465197.973626) can0 13A#0000000000000037
(1579465197.973871) can0 13F#016E01670000003F
(1579465197.974117) can0 17C#000004110000003B
(1579465197.975985) can0 158#0000040200000004
(1579465197.976217) can0 188#000000010033
(1579465197.980698) can0 164#0200002A8E000018
(1579465197.981008) can0 294#0496000392B70024
(1579465197.981820) can0 095#808008080000000A
(1579465197.981964) can0 039#000C
(1579465197.983391) can0 136#000000000000000E
(1579465197.983636) can0 13A#000000000000000A
(1579465197.983876) can0 13F#0164016500280004
(1579465197.984122) can0 17C#000004150000000A
(1579465197.984307) can0 1DC#02041502
(1579465197.984442) can0 320#000003
(1579465197.984681) can0 324#6235098A00000004
(1579465197.984926) can0 3D7#B000000000000006
(1579465197.985178) can0 40C#033335383533000E
(1579465197.985371) can0 454#63F2024B220C
(1579465197.985590) can0 465#FFFFFFFFFFFF05
(1579465197.985844) can0 1A4#0000000000000018
(1579465197.986086) can0 158#0000040100000014
(1579465197.986306) can0 188#000000010006
(1579465197.986537) can0 1AA#7FFF007FFF00691B
(1579465197.986648) can0 6C1#32
(1579465197.986873) can0 1B0#000F000200001A
(1579465197.987124) can0 1D0#000000000000000A
(1579465197.991512) can0 164#0200002A8E000027
(1579465197.991898) can0 039#001B
(1579465197.992140) can0 095#8080080800000019
(1579465197.993374) can0 136#000000000000001D
(1579465197.993622) can0 13A#0000000000000019
(1579465197.993861) can0 13F#016401650000001D
(1579465197.994111) can0 17C#0000041500000019
(1579465197.995979) can0 158#0000040100000023
(1579465197.996211) can0 188#000000010015
(1579465198.001593) can0 164#0200002A8E000036
(1579465198.001899) can0 039#002A
(1579465198.002307) can0 095#8080080800000028
(1579465198.003382) can0 136#000000000000002C
(1579465198.003628) can0 13A#0000000000000028
(1579465198.003870) can0 13F#016401650000002C
(1579465198.004118) can0 17C#0000041500000028
(1579465198.004285) can0 1DC#02041511
(1579465198.005707) can0 1A4#0000000000000027
(1579465198.005953) can0 1AA#7FFF007FFF00692A
(1579465198.006211) can0 158#0000040100000032
(1579465198.006401) can0 188#000000010024
(1579465198.006622) can0 1B0#000F0002000029
(1579465198.006873) can0 1D0#000000000000000A
(1579465198.010907) can0 164#0200002A8E000009
(1579465198.011911) can0 039#0039
(1579465198.012544) can0 095#8080080800000037
(1579465198.012897) can0 305#809F
(1579465198.013377) can0 136#000000000000003B
(1579465198.013621) can0 13A#0000000000000037
(1579465198.013860) can0 13F#0165016400280031
(1579465198.014107) can0 17C#0000041900000033
(1579465198.015980) can0 158#0000040100000005
(1579465198.016211) can0 188#000000010033
(1579465198.020707) can0 164#0200002A8E000018
(1579465198.021014) can0 294#0496000392B70033
(1579465198.021899) can0 039#000C
(1579465198.022792) can0 095#808008080000000A
(1579465198.023374) can0 136#000000000000000E
(1579465198.023621) can0 13A#000000000000000A
(1579465198.023864) can0 13F#0162016400000001
(1579465198.024114) can0 17C#0000041900000006
(1579465198.024282) can0 1DC#0204192C
(1579465198.025786) can0 1A4#0000000000000036
(1579465198.025996) can0 158#0000040100000014
(1579465198.026211) can0 188#000000010006
(1579465198.026440) can0 1AA#7FFF007FFF00683A
(1579465198.026662) can0 1B0#000F0002000038
(1579465198.026912) can0 1D0#000000000000000A
(1579465198.030853) can0 164#0200002A8E000027
(1579465198.031899) can0 039#001B
(1579465198.033037) can0 095#8080080800000019
(1579465198.033373) can0 136#000000000000001D
(1579465198.033621) can0 13A#0000000000000019
(1579465198.033864) can0 13F#0162016400000010
(1579465198.034111) can0 17C#0000041900000015
(1579465198.035969) can0 158#0000040200000022
(1579465198.036184) can0 188#000000010015
(1579465198.040691) can0 164#0200002A8E000036
(1579465198.040957) can0 374#2C00000000002A
(1579465198.041258) can0 377#0468CE3467003121
(1579465198.041574) can0 378#1042081F1A200028
(1579465198.041898) can0 039#002A
(1579465198.043278) can0 095#808008040000002C
(1579465198.043527) can0 136#000000000000002C
(1579465198.043775) can0 13A#0000000000000028
(1579465198.044016) can0 13F#016B016400000026
(1579465198.044263) can0 17C#0000041900000024
(1579465198.044431) can0 1DC#0204193B
(1579465198.045694) can0 1A4#0000000000000009
(1579465198.045935) can0 1AA#7FFF007FFF00680D
(1579465198.046188) can0 158#0000040300000030
(1579465198.046390) can0 188#000000010024
(1579465198.046613) can0 1B0#000F000200000B
(1579465198.046870) can0 1D0#000000000000000A
(1579465198.050900) can0 164#0200002A8E000009
(1579465198.051896) can0 039#0039
(1579465198.053370) can0 136#000000000000003B
(1579465198.053606) can0 095#8080080800000037
(1579465198.053855) can0 13A#0000000000000037
(1579465198.054098) can0 13F#0168016400000038
(1579465198.054357) can0 17C#0000041900000033
(1579465198.055969) can0 158#0000040300000003
(1579465198.056186) can0 188#000000010033
(1579465198.060770) can0 164#0200002A8E000018
(1579465198.061079) can0 294#0496000392B70006
(1579465198.061899) can0 039#000C
(1579465198.063375) can0 136#000000000000000E
(1579465198.063620) can0 13A#000000000000000A
(1579465198.063861) can0 095#808008080000000A
(1579465198.064104) can0 13F#016A0163000A0000
(1579465198.064362) can0 17C#0000041A00000005
(1579465198.064520) can0 1DC#02041A0D
(1579465198.065757) can0 1A4#0000000000000018
(1579465198.065968) can0 1AA#7FFF007FFF00691B
(1579465198.066216) can0 158#0000040300000012
(1579465198.066407) can0 188#000000010006
(1579465198.066630) can0 1B0#000F000200001A
(1579465198.066886) can0 1D0#000000000000000A
(1579465198.068837) can0 333#0000000000003C
(1579465198.071152) can0 164#0200002A8E000027
(1579465198.071897) can0 039#001B
(1579465198.073375) can0 136#000000000000001D
(1579465198.073619) can0 13A#0000000000000019
(1579465198.073858) can0 13F#016501630000001E
(1579465198.074098) can0 095#808008040000001D
(1579465198.074361) can0 17C#0000041A00000014
(1579465198.075965) can0 158#0000040300000021
(1579465198.076183) can0 188#000000010015
(1579465198.080822) can0 164#0200002A8F000035
(1579465198.081900) can0 039#002A
(1579465198.083381) can0 136#000000000000002C
(1579465198.083626) can0 13A#0000000000000028
(1579465198.083869) can0 13F#0162016300000020
(1579465198.084119) can0 17C#0000041A00000023
(1579465198.084371) can0 095#808008040000002C
(1579465198.084528) can0 1DC#02041A1C
(1579465198.084676) can0 320#000012
(1579465198.084917) can0 324#6235098A00000013
(1579465198.085760) can0 1A4#0000000000000027
(1579465198.085954) can0 1AA#7FFF007FFF00692A
(1579465198.086218) can0 158#0000040300000030
(1579465198.086417) can0 188#000000010024
(1579465198.086631) can0 1B0#000F0002000029
(1579465198.086881) can0 1D0#000000000000000A
(1579465198.090946) can0 164#0200002A8E000009
(1579465198.091901) can0 039#0039
(1579465198.093378) can0 136#000000000000003B
(1579465198.093620) can0 13A#0000000000000037
(1579465198.093859) can0 13F#016E0165FFD8003E
(1579465198.094105) can0 17C#0000041600000036
(1579465198.094495) can0 095#808008040000003B
(1579465198.095964) can0 158#0000040400000002
(1579465198.096183) can0 188#000000010033
(1579465198.101812) can0 164#0200002A8E000018
(1579465198.101954) can0 039#000C
(1579465198.102182) can0 294#0496000392B70015
(1579465198.103375) can0 136#000000000000000E
(1579465198.103615) can0 13A#000000000000000A
(1579465198.103858) can0 13F#016301650000000F
(1579465198.104106) can0 17C#0000041600000009
(1579465198.104280) can0 1DC#0204162F
(1579465198.104736) can0 095#808008040000000E
(1579465198.105788) can0 1A4#0000000000000036
(1579465198.105986) can0 158#0000040400000011
(1579465198.106210) can0 188#000000010006
(1579465198.106445) can0 1AA#7FFF007FFF00683A
(1579465198.106662) can0 1B0#000F0002000038
(1579465198.106912) can0 1D0#000000000000000A
(1579465198.110937) can0 164#0200002A8E000027
(1579465198.111905) can0 039#001B
(1579465198.112898) can0 305#80AE
(1579465198.113377) can0 136#000000000000001D
(1579465198.113617) can0 13A#0000000000000019
(1579465198.113858) can0 13F#016601650000001B
(1579465198.114105) can0 17C#0000041600000018
(1579465198.114984) can0 095#8080080800000019
(1579465198.115967) can0 158#0000040400000020
(1579465198.116238) can0 188#000000010015
(1579465198.120893) can0 164#0200002A8E000036
(1579465198.121898) can0 039#002A
(1579465198.123376) can0 136#000000000000002C
(1579465198.123621) can0 13A#0000000000000028
(1579465198.123862) can0 13F#016B016400140021
(1579465198.124111) can0 17C#0000041800000025
(1579465198.124300) can0 1DC#0204183C
(1579465198.125245) can0 095#808008040000002C
(1579465198.125706) can0 1A4#0000000000000009
(1579465198.125954) can0 1AA#7FFF007FFF00690C
(1579465198.126214) can0 158#000004040000003F
(1579465198.126412) can0 188#000000010024
(1579465198.126627) can0 1B0#000F000200000B
(1579465198.126877) can0 1D0#000000000000000A
(1579465198.130837) can0 164#0200002A8E000009
(1579465198.131899) can0 039#0039
(1579465198.133374) can0 136#000000000000003B
(1579465198.133612) can0 13A#0000000000000037
(1579465198.133856) can0 13F#016301640000003D
(1579465198.134104) can0 17C#0000041800000034
(1579465198.135470) can0 095#808008040000003B
(1579465198.135955) can0 158#0000040400000002
(1579465198.136175) can0 188#000000010033
(1579465198.140791) can0 164#0200002A8E000018
(1579465198.141085) can0 294#0496000392B70024
(1579465198.141386) can0 374#2C000000000039
(1579465198.141692) can0 377#0468CE3467003130
(1579465198.142009) can0 378#1042081F1A200037
(1579465198.142148) can0 039#000C
(1579465198.143376) can0 136#000000000000000E
(1579465198.143612) can0 13A#000000000000000A
(1579465198.143860) can0 13F#016801640000000B
(1579465198.144106) can0 17C#0000041800000007
(1579465198.144277) can0 1DC#0204180F
(1579465198.145703) can0 1A4#0000000000000018
(1579465198.145948) can0 095#808008040000000E
(1579465198.146209) can0 158#0000040400000011
(1579465198.146398) can0 188#000000010006
(1579465198.146639) can0 1AA#7FFF007FFF00691B
(1579465198.146867) can0 1B0#000F000200001A
(1579465198.147118) can0 1D0#000000000000000A
(1579465198.150993) can0 164#0200002A8E000027
(1579465198.151897) can0 039#001B
(1579465198.153384) can0 136#000000000000001D
(1579465198.153629) can0 13A#0000000000000019
(1579465198.153869) can0 13F#016D0164000A001B
(1579465198.154114) can0 17C#0000041900000015
(1579465198.155954) can0 158#0000040400000020
(1579465198.156209) can0 095#808008040000001D
(1579465198.156400) can0 188#000000010015
(1579465198.160746) can0 164#0200002A8E000036
(1579465198.161897) can0 039#002A
(1579465198.163383) can0 136#000000000000002C
(1579465198.163628) can0 13A#0000000000000028
(1579465198.163869) can0 13F#016201640000002F
(1579465198.164114) can0 17C#0000041900000024
(1579465198.164300) can0 1DC#0204191D
(1579465198.165698) can0 1A4#0000000000000027
(1579465198.165949) can0 158#000004040000003F
(1579465198.166156) can0 188#000000010024
(1579465198.166398) can0 095#8080080800000028
(1579465198.166637) can0 1AA#7FFF007FFF00692A
(1579465198.166860) can0 1B0#000F0002000029
(1579465198.167113) can0 1D0#000000000000000A
(1579465198.168836) can0 333#0000000000000F
(1579465198.170964) can0 164#0200002A8E000009
(1579465198.171897) can0 039#0039
(1579465198.173381) can0 136#000000000000003B
(1579465198.173629) can0 13A#0000000000000037
(1579465198.173870) can0 13F#016201640000003E
(1579465198.174119) can0 17C#0000041900000033
(1579465198.175951) can0 158#0000040400000002
(1579465198.176175) can0 188#000000010033
(1579465198.176443) can0 095#8080080800000037
(1579465198.180826) can0 164#0200002A8E000018
(1579465198.181137) can0 294#0496000392B70033
(1579465198.181895) can0 039#000C
(1579465198.183374) can0 136#000000000000000E
(1579465198.183619) can0 13A#000000000000000A
(1579465198.183857) can0 13F#01650163000A0005
(1579465198.184105) can0 17C#0000041A00000005
(1579465198.184271) can0 1DC#02041A2B
(1579465198.184431) can0 320#000021
(1579465198.184660) can0 324#6235098B00000021
(1579465198.184903) can0 3D7#B000000000000051
(1579465198.185794) can0 1A4#0000000000000036
(1579465198.185982) can0 158#0000040400000011
(1579465198.186205) can0 188#000000010006
(1579465198.186434) can0 1AA#7FFF007FFF00683A
(1579465198.186656) can0 1B0#000F0002000038
(1579465198.186899) can0 095#808008040000000E
(1579465198.187147) can0 1D0#000000000000000A
(1579465198.191179) can0 164#0200002A8F000026
(1579465198.191894) can0 039#001B
(1579465198.193383) can0 136#000000000000001D
(1579465198.193630) can0 13A#0000000000000019
(1579465198.193870) can0 13F#0162016300000011
(1579465198.194119) can0 17C#0000041A00000014
(1579465198.195948) can0 158#0000040400000020
(1579465198.196155) can0 188#000000010015
(1579465198.196927) can0 095#808008040000001D
(1579465198.201756) can0 164#0200002A8E000036
(1579465198.201897) can0 039#002A
(1579465198.203376) can0 136#000000000000002C
(1579465198.203615) can0 13A#0000000000000028
(1579465198.203858) can0 13F#0162016300000020
(1579465198.204108) can0 17C#0000041A00000023
(1579465198.204276) can0 1DC#02041A3A
(1579465198.205698) can0 1A4#0000000000000009
(1579465198.205955) can0 158#000004050000003E
(1579465198.206156) can0 188#000000010024
(1579465198.206397) can0 1AA#7FFF007FFF00690C
(1579465198.206622) can0 1B0#000F000200000B
(1579465198.206875) can0 1D0#000000000000000A
(1579465198.207182) can0 095#808008040000002C
(1579465198.210879) can0 164#0200002A8E000009
(1579465198.211904) can0 039#0039
(1579465198.212890) can0 305#80BD
(1579465198.213372) can0 136#000000000000003B
(1579465198.213611) can0 13A#0000000000000037
(1579465198.213852) can0 13F#01660164FFE2003C
(1579465198.214097) can0 17C#0000041700000035
(1579465198.215946) can0 158#0000040500000001
(1579465198.216156) can0 188#000000010033
(1579465198.217418) can0 095#808008040000003B
(1579465198.220694) can0 164#0200002A8E000018
(1579465198.221000) can0 294#0496000392B70006
(1579465198.221895) can0 039#000C
(1579465198.223371) can0 136#000000000000000E
(1579465198.223608) can0 13A#000000000000000A
(1579465198.223852) can0 13F#016C016400000007
(1579465198.224097) can0 17C#0000041700000008
(1579465198.224268) can0 1DC#02041700
(1579465198.225755) can0 1A4#0000000000000018
(1579465198.225967) can0 158#0000040500000010
(1579465198.226179) can0 188#000000010006
(1579465198.226405) can0 1AA#7FFF007FFF00691B
(1579465198.226629) can0 1B0#000F000200001A
(1579465198.226880) can0 1D0#000000000000000A
(1579465198.227661) can0 095#808008080000000A
(1579465198.230964) can0 164#0200002A8E000027
(1579465198.231905) can0 039#001B
(1579465198.233368) can0 136#000000000000001D
(1579465198.233607) can0 13A#0000000000000019
(1579465198.233849) can0 13F#016301640000001F
(1579465198.234098) can0 17C#0000041700000017
(1579465198.235941) can0 158#0000040400000020
(1579465198.236148) can0 188#000000010015
(1579465198.237904) can0 095#8080080800000019
(1579465198.240665) can0 164#0200002A8E000036
(1579465198.240983) can0 374#2C00000000000C
(1579465198.241302) can0 377#0468CE3467003103
(1579465198.241606) can0 378#1042081F1A20000A
(1579465198.241926) can0 405#0000040000000029
(1579465198.242054) can0 039#002A
(1579465198.242301) can0 428#0004000000192A
(1579465198.243374) can0 136#000000000000002C
(1579465198.243612) can0 13A#0000000000000028
(1579465198.243854) can0 13F#0169016400000028
(1579465198.244102) can0 17C#0000041700000026
(1579465198.244275) can0 1DC#0204171F
(1579465198.245706) can0 1A4#0000000000000027
(1579465198.245955) can0 158#000004040000003F
(1579465198.246176) can0 188#000000010024
(1579465198.246401) can0 1AA#7FFF007FFF00692A
(1579465198.246625) can0 1B0#000F0002000029
(1579465198.246875) can0 1D0#000000000000000A
(1579465198.248150) can0 095#8080080800000028
(1579465198.251069) can0 164#0200002A8E000009
(1579465198.251896) can0 039#0039
(1579465198.253371) can0 136#000000000000003B
(1579465198.253607) can0 13A#0000000000000037
(1579465198.253846) can0 13F#016601640000003A
(1579465198.254098) can0 17C#0000041700000035
(1579465198.255939) can0 158#0000040400000002
(1579465198.256145) can0 188#000000010033
(1579465198.258391) can0 095#8080080800000037
(1579465198.260679) can0 164#0200002A8E000018
(1579465198.260994) can0 294#0496000392B70015
(1579465198.261895) can0 039#000C
(1579465198.263369) can0 136#000000000000000E
(1579465198.263605) can0 13A#000000000000000A
(1579465198.263849) can0 13F#0164016200280007
(1579465198.264097) can0 17C#0000041B00000004
(1579465198.264269) can0 1DC#02041B2A
(1579465198.265793) can0 1A4#0000000000000036
(1579465198.265991) can0 158#0000040400000011
(1579465198.266217) can0 188#000000010006
(1579465198.266443) can0 1AA#7FFF007FFF006939
(1579465198.266666) can0 1B0#000F0002000038
(1579465198.266915) can0 1D0#000000000000000A
(1579465198.268634) can0 095#808008040000000E
(1579465198.268863) can0 333#0000000000001E
(1579465198.270923) can0 164#0200002A8E000027
(1579465198.271893) can0 039#001B
(1579465198.273378) can0 136#000000000000001D
(1579465198.273624) can0 13A#0000000000000019
(1579465198.273869) can0 13F#0161016200000013
(1579465198.274112) can0 17C#0000041B00000013
(1579465198.275932) can0 158#000004050000002F
(1579465198.276139) can0 188#000000010015
(1579465198.278879) can0 095#8080080800000019
(1579465198.280675) can0 164#0200002A8E000036
(1579465198.281895) can0 039#002A
(1579465198.283374) can0 136#000000000000002C
(1579465198.283620) can0 13A#0000000000000028
(1579465198.283861) can0 13F#0161016200000022
(1579465198.284107) can0 17C#0000041B00000022
(1579465198.284280) can0 1DC#02041B39
(1579465198.284436) can0 320#000030
(1579465198.284667) can0 324#6235098B00000030
(1579465198.284921) can0 40C#0000000004000013
(1579465198.285118) can0 454#63F2024B221B
(1579465198.285361) can0 465#FFFFFFFFFFFF14
(1579465198.285428) can0 6C1#05
(1579465198.285707) can0 1A4#0000000000000009
(1579465198.285960) can0 158#000004050000003E
(1579465198.286180) can0 188#000000010024
(1579465198.286404) can0 1AA#7FFF007FFF00690C
(1579465198.286630) can0 1B0#000F000200000B
(1579465198.286879) can0 1D0#000000000000000A
(1579465198.289119) can0 095#8080080800000028
(1579465198.291245) can0 164#0200002A8E000009
(1579465198.291895) can0 039#0039
(1579465198.293368) can0 136#000000000000003B
(1579465198.293603) can0 13A#0000000000000037
(1579465198.293843) can0 13F#016401610014003A
(1579465198.294090) can0 17C#0000041D0000003F
(1579465198.295930) can0 158#0000040500000001
(1579465198.296137) can0 188#000000010033
(1579465198.299387) can0 095#808008040000003B
(1579465198.301629) can0 164#0200002A8E000018
(1579465198.301942) can0 294#0496000392B70024
(1579465198.302079) can0 039#000C
(1579465198.303369) can0 136#000000000000000E
(1579465198.303598) can0 13A#000000000000000A
(1579465198.303843) can0 13F#0164016100000002
(1579465198.304092) can0 17C#0000041D00000002
(1579465198.304257) can0 1DC#02041D0A
(1579465198.305699) can0 1A4#0000000000000018
(1579465198.305952) can0 158#0000040400000011
(1579465198.306157) can0 188#000000010006
(1579465198.306399) can0 1AA#7FFF007FFF00691B
(1579465198.306624) can0 1B0#000F000200001A
(1579465198.306874) can0 1D0#000000000000000A
(1579465198.309609) can0 095#808008080000000A
(1579465198.310956) can0 164#0200002A8E000027
(1579465198.311900) can0 039#001B
(1579465198.312890) can0 305#8080
(1579465198.313366) can0 136#000000000000001D
(1579465198.313603) can0 13A#0000000000000019
(1579465198.313843) can0 13F#0161016100000014
(1579465198.314091) can0 17C#0000041D00000011
(1579465198.315925) can0 158#000004050000002F
(1579465198.316132) can0 188#000000010015
(1579465198.319854) can0 095#8080080800000019
(1579465198.320949) can0 164#0200002A8E000036
(1579465198.321893) can0 039#002A
(1579465198.323374) can0 136#000000000000002C
(1579465198.323607) can0 13A#0000000000000028
(1579465198.323849) can0 13F#015F01600028002D
(1579465198.324097) can0 17C#000004210000002B
(1579465198.324258) can0 1DC#02042114
(1579465198.325706) can0 1A4#0000000000000027
(1579465198.325957) can0 158#000004060000003D
(1579465198.326174) can0 188#000000010024
(1579465198.326398) can0 1AA#7FFF007FFF00692A
(1579465198.326621) can0 1B0#000F0002000029
(1579465198.326871) can0 1D0#000000000000000A
(1579465198.330098) can0 095#808008040000002C
(1579465198.330829) can0 164#0200002A8E000009
(1579465198.331895) can0 039#0039
(1579465198.333370) can0 136#000000000000003B
(1579465198.333603) can0 13A#0000000000000037
(1579465198.333848) can0 13F#015F016000000036
(1579465198.334092) can0 17C#000004210000003A
(1579465198.335923) can0 158#000004070000000F
(1579465198.336130) can0 188#000000010033
(1579465198.340352) can0 095#8080080800000037
(1579465198.340649) can0 164#0200002A8E000018
(1579465198.340994) can0 294#0496000392B70033
(1579465198.341282) can0 374#2C00000000001B
(1579465198.341589) can0 377#0468CE3467003112
(1579465198.341901) can0 378#1042081F1A200019
(1579465198.342031) can0 039#000C
(1579465198.343368) can0 136#000000000000000E
(1579465198.343603) can0 13A#000000000000000A
(1579465198.343847) can0 13F#0162016000000005
(1579465198.344090) can0 17C#000004210000000D
(1579465198.344251) can0 1DC#02042123
(1579465198.345809) can0 1A4#0000000000000036
(1579465198.346042) can0 158#000004070000001E
(1579465198.346219) can0 188#000000010006
(1579465198.346446) can0 1AA#7FFF007FFF006939
(1579465198.346667) can0 1B0#000F0002000038
(1579465198.346917) can0 1D0#000000000000000A
(1579465198.350601) can0 095#808008080000000A
(1579465198.350926) can0 164#0200002A8E000027
(1579465198.351893) can0 039#001B
(1579465198.353365) can0 136#000000000000001D
(1579465198.353598) can0 13A#0000000000000019
(1579465198.353843) can0 13F#015F015F000A0010
(1579465198.354089) can0 17C#000004220000001B
(1579465198.355917) can0 158#000004080000002C
(1579465198.356125) can0 188#000000010015
(1579465198.360829) can0 095#8080080800000019
(1579465198.361071) can0 164#0200002A8E000036
(1579465198.361892) can0 039#002A
(1579465198.363369) can0 136#000000000000002C
(1579465198.363608) can0 13A#0000000000000028
(1579465198.363853) can0 13F#0164015F00000023
(1579465198.364096) can0 17C#000004220000002A
(1579465198.364267) can0 1DC#02042231
(1579465198.365708) can0 1A4#0000000000000009
(1579465198.365948) can0 158#000004080000003B
(1579465198.366157) can0 188#000000010024
(1579465198.366397) can0 1AA#7FFF007FFF00690C
(1579465198.366622) can0 1B0#000F000200000B
(1579465198.366872) can0 1D0#000000000000000A
(1579465198.368881) can0 333#0000000000002D
(1579465198.371035) can0 164#0200002A8E000009
(1579465198.371272) can0 095#8080080800000028
(1579465198.371893) can0 039#0039
(1579465198.373362) can0 136#000000000000003B
(1579465198.373598) can0 13A#0000000000000037
(1579465198.373843) can0 13F#0162015F00000034
(1579465198.374089) can0 17C#0000042200000039
(1579465198.375918) can0 158#000004080000000E
(1579465198.376124) can0 188#000000010033
(1579465198.380849) can0 164#0200002A8E000018
(1579465198.381181) can0 294#0496000392B70006
(1579465198.381403) can0 095#808008040000003B
(1579465198.381891) can0 039#000C
(1579465198.383367) can0 136#000000000000000E
(1579465198.383603) can0 13A#000000000000000A
(1579465198.383844) can0 13F#01690161FFD8000A
(1579465198.384094) can0 17C#0000041E00000001
(1579465198.384266) can0 1DC#02041E09
(1579465198.384427) can0 320#000003
(1579465198.384656) can0 324#6235098C00000002
(1579465198.384900) can0 3D7#B000000000000024
(1579465198.385760) can0 1A4#0000000000000018
(1579465198.385961) can0 158#000004090000001C
(1579465198.386181) can0 188#000000010006
(1579465198.386412) can0 1AA#7FFF007FFF00691B
(1579465198.386635) can0 1B0#000F000200001A
(1579465198.386885) can0 1D0#000000000000000A
(1579465198.391101) can0 164#0200002A8E000027
(1579465198.391556) can0 095#808008080000000A
(1579465198.391889) can0 039#001B
(1579465198.393362) can0 136#000000000000001D
(1579465198.393597) can0 13A#0000000000000019
(1579465198.393840) can0 13F#016601610000001F
(1579465198.394090) can0 17C#0000041E00000010
(1579465198.395912) can0 158#000004090000002B
(1579465198.396119) can0 188#000000010015
(1579465198.401764) can0 164#0200002A8E000036
(1579465198.402006) can0 095#8080080800000019
(1579465198.402151) can0 039#002A
(1579465198.403367) can0 136#000000000000002C
(1579465198.403603) can0 13A#0000000000000028
(1579465198.403846) can0 13F#0160016100000024
(1579465198.404094) can0 17C#0000041E0000002F
(1579465198.404265) can0 1DC#02041E18
(1579465198.405706) can0 1A4#0000000000000027
(1579465198.405953) can0 158#000004090000003A
(1579465198.406157) can0 188#000000010024
(1579465198.406397) can0 1AA#7FFF007FFF00692A
(1579465198.406620) can0 1B0#000F0002000029
(1579465198.406870) can0 1D0#000000000000000A
(1579465198.410901) can0 164#0200002A8E000009
(1579465198.411899) can0 039#0039
(1579465198.412140) can0 095#808008040000002C
(1579465198.412887) can0 305#809F
(1579465198.413361) can0 136#000000000000003B
(1579465198.413596) can0 13A#0000000000000037
(1579465198.413839) can0 13F#016601610000003D
(1579465198.414089) can0 17C#0000041E0000003E
(1579465198.415907) can0 158#0000040A0000000C
(1579465198.416113) can0 188#000000010033
(1579465198.420717) can0 164#0200002A8E000018
(1579465198.421027) can0 294#0496000392B70015
(1579465198.421894) can0 039#000C
(1579465198.422299) can0 095#8080080800000037
(1579465198.423362) can0 136#000000000000000E
(1579465198.423597) can0 13A#000000000000000A
(1579465198.423839) can0 13F#0160016100000006
(1579465198.424088) can0 17C#0000041E00000001
(1579465198.424254) can0 1DC#02041E27
(1579465198.425777) can0 1A4#0000000000000036
(1579465198.425981) can0 158#0000040A0000001B
(1579465198.426205) can0 188#000000010006
(1579465198.426433) can0 1AA#7FFF007FFF00683A
(1579465198.426654) can0 1B0#000F0002000038
(1579465198.426905) can0 1D0#000000000000000A
(1579465198.430869) can0 164#0200002A8E000027
(1579465198.431890) can0 039#001B
(1579465198.432530) can0 095#808008080000000A
(1579465198.433361) can0 136#000000000000001D
(1579465198.433594) can0 13A#0000000000000019
(1579465198.433840) can0 13F#015F016000140013
(1579465198.434086) can0 17C#000004200000001D
(1579465198.435905) can0 158#0000040A0000002A
(1579465198.436113) can0 188#000000010015
(1579465198.440768) can0 164#0200002A8E000036
(1579465198.441086) can0 374#2C00000000002A
(1579465198.441381) can0 377#0468CE3467003121
(1579465198.441683) can0 378#1042081F1A200028
(1579465198.441889) can0 039#002A
(1579465198.442773) can0 095#808008040000001D
(1579465198.443362) can0 136#000000000000002C
(1579465198.443599) can0 13A#0000000000000028
(1579465198.443844) can0 13F#015F016000000027
(1579465198.444090) can0 17C#000004200000002C
(1579465198.444258) can0 1DC#02042033
(1579465198.445706) can0 1A4#0000000000000009
(1579465198.445950) can0 158#0000040A00000039
(1579465198.446175) can0 188#000000010024
(1579465198.446399) can0 1AA#7FFF007FFF00690C
(1579465198.446624) can0 1B0#000F000200000B
(1579465198.446875) can0 1D0#000000000000000A
(1579465198.450954) can0 164#0200002A8F000008
(1579465198.451892) can0 039#0039
(1579465198.453016) can0 095#8080080800000028
(1579465198.453357) can0 136#000000000000003B
(1579465198.453594) can0 13A#0000000000000037
(1579465198.453838) can0 13F#015F016000000036
(1579465198.454082) can0 17C#000004200000003B
(1579465198.455900) can0 158#0000040A0000000C
(1579465198.456108) can0 188#000000010033
(1579465198.460768) can0 164#0200002A8E000018
(1579465198.461079) can0 294#0496000392B70024
(1579465198.461889) can0 039#000C
(1579465198.463261) can0 095#8080080800000037
(1579465198.463505) can0 136#000000000000000E
(1579465198.463752) can0 13A#000000000000000A
(1579465198.463994) can0 13F#01640162FFD8000E
(1579465198.464251) can0 17C#0000041C00000003
(1579465198.464415) can0 1DC#02041C0B
(1579465198.465756) can0 1A4#0000000000000018
(1579465198.465968) can0 158#0000040A0000001B
(1579465198.466180) can0 188#000000010006
(1579465198.466404) can0 1AA#7FFF007FFF00691B
(1579465198.466630) can0 1B0#000F000200001A
(1579465198.466880) can0 1D0#000000000000000A
(1579465198.468929) can0 333#0000000000003C
(1579465198.470927) can0 164#0200002A8E000027
(1579465198.471889) can0 039#001B
(1579465198.473360) can0 136#000000000000001D
(1579465198.473587) can0 095#808008080000000A
(1579465198.473833) can0 13A#0000000000000019
(1579465198.474076) can0 13F#0161016200000013
(1579465198.474337) can0 17C#0000041C00000012
(1579465198.475898) can0 158#0000040A0000002A
(1579465198.476106) can0 188#000000010015
(1579465198.480802) can0 164#0200002A8E000036
(1579465198.481888) can0 039#002A
(1579465198.483367) can0 136#000000000000002C
(1579465198.483603) can0 13A#0000000000000028
(1579465198.483844) can0 095#8080080800000019
(1579465198.484084) can0 13F#0161016200000022
(1579465198.484342) can0 17C#0000041C00000021
(1579465198.484499) can0 1DC#02041C1A
(1579465198.484653) can0 320#000012
(1579465198.484889) can0 324#6235098C00000011
(1579465198.485764) can0 1A4#0000000000000027
(1579465198.485965) can0 158#0000040A00000039
(1579465198.486182) can0 188#000000010024
(1579465198.486412) can0 1AA#7FFF007FFF00692A
(1579465198.486635) can0 1B0#000F0002000029
(1579465198.486885) can0 1D0#000000000000000A
(1579465198.491080) can0 164#0200002A8E000009
(1579465198.491889) can0 039#0039
(1579465198.493359) can0 136#000000000000003B
(1579465198.493592) can0 13A#0000000000000037
(1579465198.493832) can0 13F#016001610014003E
(1579465198.494073) can0 095#808008040000002C
(1579465198.494337) can0 17C#0000041E0000003E
(1579465198.495894) can0 158#0000040A0000000C
(1579465198.496103) can0 188#000000010033
(1579465198.501816) can0 164#0200002A8E000018
(1579465198.501956) can0 039#000C
(1579465198.502185) can0 294#0496000392B70033
(1579465198.503357) can0 136#000000000000000E
(1579465198.503591) can0 13A#000000000000000A
(1579465198.503831) can0 13F#0160016100000006
(1579465198.504080) can0 17C#0000041E00000001
(1579465198.504337) can0 095#808008040000003B
(1579465198.504494) can0 1DC#02041E27
(1579465198.505795) can0 1A4#0000000000000036
(1579465198.505998) can0 158#0000040B0000001A
(1579465198.506219) can0 188#000000010006
(1579465198.506446) can0 1AA#7FFF007FFF006939
(1579465198.506667) can0 1B0#000F0002000038
(1579465198.506917) can0 1D0#000000000000000A
(1579465198.510920) can0 164#0200002A8E000027
(1579465198.511894) can0 039#001B
(1579465198.512884) can0 305#80AE
(1579465198.513355) can0 136#000000000000001D
(1579465198.513590) can0 13A#0000000000000019
(1579465198.513830) can0 13F#0160016100000015
(1579465198.514080) can0 17C#0000041E00000010
(1579465198.514481) can0 095#808008080000000A
(1579465198.515892) can0 158#0000040A0000002A
(1579465198.516100) can0 188#000000010015
(1579465198.520873) can0 164#0200002A8D000037
(1579465198.521886) can0 039#002A
(1579465198.523360) can0 136#000000000000002C
(1579465198.523594) can0 13A#0000000000000028
(1579465198.523845) can0 13F#01620163FFCE0028
(1579465198.524079) can0 17C#0000041900000024
(1579465198.524252) can0 1DC#0204193B
(1579465198.524723) can0 095#808008040000001D
(1579465198.525694) can0 1A4#0000000000000009
(1579465198.525938) can0 158#000004090000003A
(1579465198.526142) can0 188#000000010024
(1579465198.526387) can0 1AA#7FFF007FFF00680D
(1579465198.526610) can0 1B0#000F000200000B
(1579465198.526860) can0 1D0#000000000000000A
(1579465198.530933) can0 164#0200002A8E000009
(1579465198.531888) can0 039#0039
(1579465198.533391) can0 136#000000000000003B
(1579465198.533638) can0 13A#0000000000000037
(1579465198.533882) can0 13F#016201630000003F
(1579465198.534129) can0 17C#0000041900000033
(1579465198.534969) can0 095#808008040000002C
(1579465198.535887) can0 158#000004090000000D
(1579465198.536090) can0 188#000000010033
(1579465198.540667) can0 164#0200002A8E000018
(1579465198.540982) can0 294#0496000392B70006
(1579465198.541304) can0 374#2C000000000039
(1579465198.541593) can0 377#0468CE3467003130
(1579465198.541907) can0 378#1042081F1A200037
(1579465198.542037) can0 039#000C
(1579465198.542306) can0 405#0000040000000038
(1579465198.542599) can0 428#00040000001939
(1579465198.543354) can0 136#000000000000000E
(1579465198.543587) can0 13A#000000000000000A
(1579465198.543830) can0 13F#0162016300000002
(1579465198.544079) can0 17C#0000041900000006
(1579465198.544250) can0 1DC#0204190E
(1579465198.545230) can0 095#808008040000003B
(1579465198.545760) can0 1A4#0000000000000018
(1579465198.545949) can0 158#000004090000001C
(1579465198.546155) can0 188#000000010006
(1579465198.546398) can0 1AA#7FFF007FFF00691B
(1579465198.546624) can0 1B0#000F000200001A
(1579465198.546873) can0 1D0#000000000000000A
(1579465198.551080) can0 164#0200002A8E000027
(1579465198.551883) can0 039#001B
(1579465198.553347) can0 136#000000000000001D
(1579465198.553581) can0 13A#0000000000000019
(1579465198.553819) can0 13F#01610162001E0014
(1579465198.554066) can0 17C#0000041C00000012
(1579465198.555452) can0 095#808008040000000E
(1579465198.555883) can0 158#000004090000002B
(1579465198.556094) can0 188#000000010015
(1579465198.560655) can0 164#0200002A8E000036
(1579465198.561886) can0 039#002A
(1579465198.563357) can0 136#000000000000002C
(1579465198.563594) can0 13A#0000000000000028
(1579465198.563831) can0 13F#0161016200000022
(1579465198.564078) can0 17C#0000041C00000021
(1579465198.564251) can0 1DC#02041C1A
(1579465198.565684) can0 1A4#0000000000000027
(1579465198.565925) can0 095#8080080800000019
(1579465198.566182) can0 158#000004090000003A
(1579465198.566376) can0 188#000000010024
(1579465198.566619) can0 1AA#7FFF007FFF00682B
(1579465198.566844) can0 1B0#000F0002000029
(1579465198.567093) can0 1D0#000000000000000A
(1579465198.568948) can0 333#0000000000000F
(1579465198.570892) can0 164#0200002A8E000009
(1579465198.571889) can0 039#0039
(1579465198.573355) can0 136#000000000000003B
(1579465198.573587) can0 13A#0000000000000037
(1579465198.573829) can0 13F#016401620000003E
(1579465198.574079) can0 17C#0000041C00000030
(1579465198.575881) can0 158#000004090000000D
(1579465198.576120) can0 095#8080080800000028
(1579465198.576342) can0 188#000000010033
(1579465198.580716) can0 164#0200002A8E000018
(1579465198.581025) can0 294#0496000392B70015
(1579465198.581886) can0 039#000C
(1579465198.583361) can0 136#000000000000000E
(1579465198.583596) can0 13A#000000000000000A
(1579465198.583844) can0 13F#015F01600028000F
(1579465198.584092) can0 17C#000004200000000E
(1579465198.584259) can0 1DC#02042024
(1579465198.584412) can0 320#000021
(1579465198.584644) can0 324#6235098D0000002F
(1579465198.584889) can0 3D7#B00000000000007F
(1579465198.585120) can0 40C#0131484743503229
(1579465198.585335) can0 454#63F2024B222A
(1579465198.585544) can0 465#FFFFFFFFFFFF23
(1579465198.585798) can0 1A4#0000000000000036
(1579465198.586040) can0 158#000004080000001D
(1579465198.586279) can0 095#8080080800000037
(1579465198.586486) can0 188#000000010006
(1579465198.586731) can0 1AA#7FFF007FFF00683A
(1579465198.586841) can0 6C1#14
(1579465198.587069) can0 1B0#000F0002000038
(1579465198.587334) can0 1D0#000000000000000A
(1579465198.591571) can0 164#0200002A8E000027
(1579465198.591885) can0 039#001B
(1579465198.593350) can0 136#000000000000001D
(1579465198.593585) can0 13A#0000000000000019
(1579465198.593830) can0 13F#015F016000000018
(1579465198.594079) can0 17C#000004200000001D
(1579465198.595879) can0 158#000004080000002C
(1579465198.596093) can0 188#000000010015
(1579465198.596428) can0 095#808008080000000A
(1579465198.601671) can0 164#0200002A8E000036
(1579465198.601885) can0 039#002A
(1579465198.603370) can0 136#000000000000002C
(1579465198.603608) can0 13A#0000000000000028
(1579465198.603853) can0 13F#015F016000000027
(1579465198.604098) can0 17C#000004200000002C
(1579465198.604266) can0 1DC#02042033
(1579465198.605684) can0 1A4#0000000000000009
(1579465198.605928) can0 158#000004090000003A
(1579465198.606134) can0 188#000000010024
(1579465198.606379) can0 1AA#7FFF007FFF00680D
(1579465198.606604) can0 1B0#000F000200000B
(1579465198.606845) can0 095#8080080800000019
(1579465198.607096) can0 1D0#000000000000000A
(1579465198.610942) can0 164#0200002A8E000009
(1579465198.611895) can0 039#0039
(1579465198.612881) can0 305#80BD
(1579465198.613344) can0 136#000000000000003B
(1579465198.613581) can0 13A#0000000000000037
(1579465198.613822) can0 13F#0160015E00320032
(1579465198.614067) can0 17C#0000042500000036
(1579465198.615876) can0 158#0000040A0000000C
(1579465198.616089) can0 188#000000010033
(1579465198.616915) can0 095#8080080800000028
(1579465198.620725) can0 164#0200002A8E000018
(1579465198.621038) can0 294#0496000392B70024
(1579465198.621885) can0 039#000C
(1579465198.623351) can0 136#000000000000000E
(1579465198.623581) can0 13A#000000000000000A
(1579465198.623823) can0 13F#015D015E0000000E
(1579465198.624066) can0 17C#0000042500000009
(1579465198.624248) can0 1DC#02042501
(1579465198.625689) can0 1A4#0000000000000018
(1579465198.625932) can0 158#0000040B0000001A
(1579465198.626139) can0 188#000000010006
(1579465198.626385) can0 1AA#7FFF007FFF00681C
(1579465198.626609) can0 1B0#000F000200001A
(1579465198.626859) can0 1D0#000000000000000A
(1579465198.627155) can0 095#8080080800000037
(1579465198.630883) can0 164#0200002A8E000027
(1579465198.631885) can0 039#001B
(1579465198.633342) can0 136#000000000000001D
(1579465198.633580) can0 13A#0000000000000019
(1579465198.633821) can0 13F#015E015EFFF60019
(1579465198.634065) can0 17C#0000042400000019
(1579465198.635871) can0 158#0000040B00000029
(1579465198.636081) can0 188#000000010015
(1579465198.637402) can0 095#808008080000000A
(1579465198.640758) can0 164#0200002A8F000035
(1579465198.641062) can0 374#2C00000000000C
(1579465198.641375) can0 377#0468CE3467003103
(1579465198.641683) can0 378#1042081F1A20000A
(1579465198.641883) can0 039#002A
(1579465198.643351) can0 136#000000000000002C
(1579465198.643586) can0 13A#0000000000000028
(1579465198.643827) can0 13F#015E015E0000002B
(1579465198.644073) can0 17C#0000042400000028
(1579465198.644251) can0 1DC#02042411
(1579465198.645698) can0 1A4#0000000000000027
(1579465198.645946) can0 158#0000040B00000038
(1579465198.646151) can0 188#000000010024
(1579465198.646390) can0 1AA#7FFF007FFF00692A
(1579465198.646617) can0 1B0#000F0002000029
(1579465198.646867) can0 1D0#000000000000000A
(1579465198.647646) can0 095#8080080800000019
(1579465198.650911) can0 164#0200002A8E000009
(1579465198.651886) can0 039#0039
(1579465198.653346) can0 136#000000000000003B
(1579465198.653580) can0 13A#0000000000000037
(1579465198.653821) can0 13F#0161015E00000036
(1579465198.654069) can0 17C#0000042400000037
(1579465198.655868) can0 158#0000040B0000000B
(1579465198.656078) can0 188#000000010033
(1579465198.657887) can0 095#8080080800000028
(1579465198.660690) can0 164#0200002A8E000018
(1579465198.660996) can0 294#0496000392B70033
(1579465198.661893) can0 039#000C
(1579465198.663343) can0 136#000000000000000E
(1579465198.663579) can0 13A#000000000000000A
(1579465198.663823) can0 13F#01620160FFD80002
(1579465198.664069) can0 17C#000004200000000E
(1579465198.664248) can0 1DC#02042024
(1579465198.665792) can0 1A4#0000000000000036
(1579465198.665993) can0 158#0000040C00000019
(1579465198.666216) can0 188#000000010006
(1579465198.666439) can0 1AA#7FFF007FFF006939
(1579465198.666661) can0 1B0#000F0002000038
(1579465198.666911) can0 1D0#000000000000000A
(1579465198.668132) can0 095#808008040000003B
(1579465198.668869) can0 333#0000000000001E
(1579465198.671080) can0 164#0200002A8F000026
(1579465198.671883) can0 039#001B
(1579465198.673350) can0 136#000000000000001D
(1579465198.673586) can0 13A#0000000000000019
(1579465198.673831) can0 13F#015F016000000018
(1579465198.674079) can0 17C#000004200000001D
(1579465198.675868) can0 158#0000040C00000028
(1579465198.676078) can0 188#000000010015
(1579465198.678378) can0 095#808008080000000A
(1579465198.680832) can0 164#0200002A8E000036
(1579465198.681883) can0 039#002A
(1579465198.683354) can0 136#000000000000002C
(1579465198.683589) can0 13A#0000000000000028
(1579465198.683830) can0 13F#015F016000000027
(1579465198.684078) can0 17C#000004200000002C
(1579465198.684251) can0 1DC#02042033
(1579465198.684394) can0 320#000030
(1579465198.684637) can0 324#6235098D0000003E
(1579465198.685705) can0 1A4#0000000000000009
(1579465198.685947) can0 158#0000040C00000037
(1579465198.686155) can0 188#000000010024
(1579465198.686395) can0 1AA#7FFF007FFF00690C
(1579465198.686621) can0 1B0#000F000200000B
(1579465198.686871) can0 1D0#000000000000000A
(1579465198.688620) can0 095#8080080800000019
(1579465198.690943) can0 164#0200002A8E000009
(1579465198.691885) can0 039#0039
(1579465198.693342) can0 136#000000000000003B
(1579465198.693578) can0 13A#0000000000000037
(1579465198.693820) can0 13F#01600160FFF60031
(1579465198.694067) can0 17C#0000041F0000003D
(1579465198.695868) can0 158#0000040C0000000A
(1579465198.696072) can0 188#000000010033
(1579465198.698863) can0 095#8080080800000028
(1579465198.701806) can0 164#0200002A8E000018
(1579465198.701947) can0 039#000C
(1579465198.702182) can0 294#0496000392B70006
(1579465198.703342) can0 136#000000000000000E
(1579465198.703577) can0 13A#000000000000000A
(1579465198.703818) can0 13F#0163016000000004
(1579465198.704068) can0 17C#0000041F00000000
(1579465198.704251) can0 1DC#02041F08
(1579465198.705702) can0 1A4#0000000000000018
(1579465198.705948) can0 158#0000040C00000019
(1579465198.706154) can0 188#000000010006
(1579465198.706396) can0 1AA#7FFF007FFF00691B
(1579465198.706621) can0 1B0#000F000200001A
(1579465198.706871) can0 1D0#000000000000000A
(1579465198.709104) can0 095#8080080800000037
(1579465198.710932) can0 164#0200002A8E000027
(1579465198.711890) can0 039#001B
(1579465198.712879) can0 305#8080
(1579465198.713342) can0 136#000000000000001D
(1579465198.713577) can0 13A#0000000000000019
(1579465198.713819) can0 13F#0163016000000013
(1579465198.714069) can0 17C#0000041F0000001F
(1579465198.715864) can0 158#0000040C00000028
(1579465198.716073) can0 188#000000010015
(1579465198.719367) can0 095#808008040000000E
(1579465198.720902) can0 164#0200002A8E000036
(1579465198.721882) can0 039#002A
(1579465198.723343) can0 136#000000000000002C
(1579465198.723580) can0 13A#0000000000000028
(1579465198.723819) can0 13F#01660161FFEC0026
(1579465198.724069) can0 17C#0000041D00000020
(1579465198.724248) can0 1DC#02041D19
(1579465198.725698) can0 1A4#0000000000000027
(1579465198.725944) can0 158#0000040C00000037
(1579465198.726148) can0 188#000000010024
(1579465198.726389) can0 1AA#7FFF007FFF00692A
(1579465198.726612) can0 1B0#000F0002000029
(1579465198.726860) can0 1D0#000000000000000A
(1579465198.729593) can0 095#808008040000001D
(1579465198.730832) can0 164#0200002A8E000009
(1579465198.731884) can0 039#0039
(1579465198.733344) can0 136#000000000000003B
(1579465198.733573) can0 13A#0000000000000037
(1579465198.733815) can0 13F#0161016100000032
(1579465198.734063) can0 17C#0000041D0000003F
(1579465198.735860) can0 158#0000040D00000009
(1579465198.736069) can0 188#000000010033
(1579465198.739838) can0 095#8080080800000028
(1579465198.740770) can0 164#0200002A8E000018
(1579465198.741097) can0 294#0496000392B70015
(1579465198.741399) can0 374#2C00000000001B
(1579465198.741704) can0 377#0468CE3467003112
(1579465198.741880) can0 039#000C
(1579465198.742120) can0 378#1042081F1A200019
(1579465198.743343) can0 136#000000000000000E
(1579465198.743574) can0 13A#000000000000000A
(1579465198.743819) can0 13F#0164016100000002
(1579465198.744067) can0 17C#0000041D00000002
(1579465198.744250) can0 1DC#02041D28
(1579465198.745777) can0 1A4#0000000000000036
(1579465198.745985) can0 158#0000040C00000019
(1579465198.746218) can0 188#000000010006
(1579465198.746437) can0 1AA#7FFF007FFF00683A
(1579465198.746661) can0 1B0#000F0002000038
(1579465198.746911) can0 1D0#000000000000000A
(1579465198.750081) can0 095#8080080800000037
(1579465198.750985) can0 164#0200002A8E000027
(1579465198.751881) can0 039#001B
(1579465198.753341) can0 136#000000000000001D
(1579465198.753573) can0 13A#0000000000000019
(1579465198.753822) can0 13F#01600160000A001C
(1579465198.754067) can0 17C#0000041E00000010
(1579465198.755856) can0 158#0000040B00000029
(1579465198.756065) can0 188#000000010015
(1579465198.760342) can0 095#808008040000000E
(1579465198.760740) can0 164#0200002A8E000036
(1579465198.761882) can0 039#002A
(1579465198.763343) can0 136#000000000000002C
(1579465198.763579) can0 13A#0000000000000028
(1579465198.763823) can0 13F#0160016000000025
(1579465198.764074) can0 17C#0000041E0000002F
(1579465198.764251) can0 1DC#02041E36
(1579465198.765704) can0 1A4#0000000000000009
(1579465198.765956) can0 158#0000040B00000038
(1579465198.766156) can0 188#000000010024
(1579465198.766398) can0 1AA#7FFF007FFF00690C
(1579465198.766623) can0 1B0#000F000200000B
(1579465198.766872) can0 1D0#000000000000000A
(1579465198.768928) can0 333#0000000000002D
(1579465198.770572) can0 095#808008040000001D
(1579465198.770894) can0 164#0200002A8E000009
(1579465198.771883) can0 039#0039
(1579465198.773337) can0 136#000000000000003B
(1579465198.773572) can0 13A#0000000000000037
(1579465198.773820) can0 13F#016601600000003E
(1579465198.774065) can0 17C#0000041E0000003E
(1579465198.775855) can0 158#0000040B0000000B
(1579465198.776065) can0 188#000000010033
(1579465198.780817) can0 095#808008040000002C
(1579465198.781054) can0 164#0200002A8E000018
(1579465198.781379) can0 294#0496000392B70024
(1579465198.781880) can0 039#000C
(1579465198.783342) can0 136#000000000000000E
(1579465198.783576) can0 13A#000000000000000A
(1579465198.783818) can0 13F#016A0162FFD80008
(1579465198.784066) can0 17C#0000041A00000005
(1579465198.784251) can0 1DC#02041A0D
(1579465198.784394) can0 320#000003
(1579465198.784626) can0 324#6235098E00000000
(1579465198.784872) can0 3D7#B000000000000006
(1579465198.785763) can0 1A4#0000000000000018
(1579465198.785964) can0 158#0000040B0000001A
(1579465198.786182) can0 188#000000010006
(1579465198.786411) can0 1AA#7FFF007FFF00691B
(1579465198.786637) can0 1B0#000F000200001A
(1579465198.786887) can0 1D0#000000000000000A
(1579465198.791096) can0 095#808008040000003B
(1579465198.791306) can0 164#0200002A8E000027
(1579465198.791879) can0 039#001B
(1579465198.793342) can0 136#000000000000001D
(1579465198.793572) can0 13A#0000000000000019
(1579465198.793809) can0 13F#0162016200000012
(1579465198.794057) can0 17C#0000041A00000014
(1579465198.795848) can0 158#0000040B00000029
(1579465198.796046) can0 188#000000010015
(1579465198.801306) can0 095#808008080000000A
(1579465198.801761) can0 164#0200002A8E000036
(1579465198.801896) can0 039#002A
(1579465198.803337) can0 136#000000000000002C
(1579465198.803572) can0 13A#0000000000000028
(1579465198.803806) can0 13F#01660163FFEC0024
(1579465198.804055) can0 17C#0000041800000025
(1579465198.804238) can0 1DC#0204181E
(1579465198.805699) can0 1A4#0000000000000027
(1579465198.805951) can0 158#0000040B00000038
(1579465198.806157) can0 188#000000010024
(1579465198.806397) can0 1AA#7FFF007FFF00692A
(1579465198.806619) can0 1B0#000F0002000029
(1579465198.806870) can0 1D0#000000000000000A
(1579465198.810883) can0 164#0200002A8F000008
(1579465198.811545) can0 095#8080080800000019
(1579465198.811888) can0 039#0039
(1579465198.812877) can0 305#809F
(1579465198.813342) can0 136#000000000000003B
(1579465198.813570) can0 13A#0000000000000037
(1579465198.813808) can0 13F#016601630000003B
(1579465198.814056) can0 17C#0000041800000034
(1579465198.815843) can0 158#0000040A0000000C
(1579465198.816051) can0 188#000000010033
(1579465198.820697) can0 164#0200002A8E000018
(1579465198.821003) can0 294#0496000392B70033
(1579465198.821785) can0 095#8080080800000028
(1579465198.821924) can0 039#000C
(1579465198.823335) can0 136#000000000000000E
(1579465198.823567) can0 13A#000000000000000A
(1579465198.823806) can0 13F#0163016300000001
(1579465198.824055) can0 17C#0000041800000007
(1579465198.824241) can0 1DC#0204182D
(1579465198.825799) can0 1A4#0000000000000036
(1579465198.825998) can0 158#000004080000001D
(1579465198.826219) can0 188#000000010006
(1579465198.826445) can0 1AA#7FFF007FFF006939
(1579465198.826666) can0 1B0#000F0002000038
(1579465198.826916) can0 1D0#000000000000000A
(1579465198.830967) can0 164#0200002A8E000027
(1579465198.831878) can0 039#001B
(1579465198.832118) can0 095#8080080800000037
(1579465198.833339) can0 136#000000000000001D
(1579465198.833568) can0 13A#0000000000000019
(1579465198.833808) can0 13F#01650165FFCE0014
(1579465198.834054) can0 17C#000004130000001B
(1579465198.835845) can0 158#000004070000002D
(1579465198.836053) can0 188#000000010015
(1579465198.840667) can0 164#0200002A8E000036
(1579465198.840979) can0 374#2C00000000002A
(1579465198.841316) can0 377#0468CE3467003121
(1579465198.841603) can0 378#1042081F1A200028
(1579465198.841924) can0 405#000004000000000B
(1579465198.842053) can0 039#002A
(1579465198.842307) can0 095#808008040000000E
(1579465198.842524) can0 428#0004000000190C
(1579465198.843337) can0 136#000000000000002C
(1579465198.843575) can0 13A#0000000000000028
(1579465198.843813) can0 13F#016501650000002B
(1579465198.844057) can0 17C#000004130000002A
(1579465198.844241) can0 1DC#02041331
(1579465198.845694) can0 1A4#0000000000000009
(1579465198.845942) can0 158#000004070000003C
(1579465198.846146) can0 188#000000010024
(1579465198.846391) can0 1AA#7FFF007FFF00680D
(1579465198.846618) can0 1B0#000F000200000B
(1579465198.846869) can0 1D0#000000000000000A
(1579465198.851003) can0 164#0200002A8E000009
(1579465198.851880) can0 039#0039
(1579465198.852518) can0 095#8080080800000019
(1579465198.853344) can0 136#000000000000003B
(1579465198.853567) can0 13A#0000000000000037
(1579465198.853806) can0 13F#0167016500000038
(1579465198.854052) can0 17C#0000041300000039
(1579465198.855843) can0 158#000004070000000F
(1579465198.856051) can0 188#000000010033
(1579465198.860687) can0 164#0200002A8E000018
(1579465198.860993) can0 294#0496000392B70006
(1579465198.861877) can0 039#000C
(1579465198.862761) can0 095#8080080800000028
(1579465198.863334) can0 136#000000000000000E
(1579465198.863566) can0 13A#000000000000000A
(1579465198.863804) can0 13F#016C01640028000D
(1579465198.864050) can0 17C#0000041700000008
(1579465198.864237) can0 1DC#02041700
(1579465198.865696) can0 1A4#0000000000000018
(1579465198.865940) can0 158#000004070000001E
(1579465198.866145) can0 188#000000010006
(1579465198.866390) can0 1AA#7FFF007FFF00681C
(1579465198.866617) can0 1B0#000F000200001A
(1579465198.866866) can0 1D0#000000000000000A
(1579465198.868915) can0 333#0000000000003C
(1579465198.870926) can0 164#0200002A8E000027
(1579465198.871882) can0 039#001B
(1579465198.873004) can0 095#808008040000003B
(1579465198.873342) can0 136#000000000000001D
(1579465198.873566) can0 13A#0000000000000019
(1579465198.873806) can0 13F#016301640000001F
(1579465198.874055) can0 17C#0000041700000017
(1579465198.875836) can0 158#000004060000002E
(1579465198.876042) can0 188#000000010015
(1579465198.880776) can0 164#0200002A8F000035
(1579465198.881877) can0 039#002A
(1579465198.883250) can0 095#808008080000000A
(1579465198.883499) can0 136#000000000000002C
(1579465198.883747) can0 13A#0000000000000028
(1579465198.883985) can0 13F#016301640000002E
(1579465198.884249) can0 17C#0000041700000026
(1579465198.884397) can0 1DC#0204171F
(1579465198.884556) can0 320#000012
(1579465198.884792) can0 324#6235098E0000001F
(1579465198.885024) can0 40C#0246383441413139
(1579465198.885238) can0 454#63F2024B2239
(1579465198.885449) can0 465#FFFFFFFFFFFF32
(1579465198.885697) can0 1A4#0000000000000027
(1579465198.885948) can0 158#000004050000003E
(1579465198.886152) can0 188#000000010024
(1579465198.886396) can0 1AA#7FFF007FFF00682B
(1579465198.886508) can0 6C1#23
(1579465198.886731) can0 1B0#000F0002000029
(1579465198.886980) can0 1D0#000000000000000A
(1579465198.891218) can0 164#0200002A8E000009
(1579465198.891879) can0 039#0039
(1579465198.893332) can0 136#000000000000003B
(1579465198.893556) can0 095#8080080800000019
(1579465198.893804) can0 13A#0000000000000037
(1579465198.894042) can0 13F#016A0162001E0039
(1579465198.894306) can0 17C#0000041A00000032
(1579465198.895836) can0 158#0000040400000002
(1579465198.896044) can0 188#000000010033
(1579465198.901643) can0 164#0200002A8E000018
(1579465198.901954) can0 294#0496000392B70015
(1579465198.902085) can0 039#000C
(1579465198.903343) can0 136#000000000000000E
(1579465198.903563) can0 13A#000000000000000A
(1579465198.903800) can0 095#8080080800000028
(1579465198.904042) can0 13F#0162016200000003
(1579465198.904306) can0 17C#0000041A00000005
(1579465198.904457) can0 1DC#02041A2B
(1579465198.905771) can0 1A4#0000000000000036
(1579465198.905981) can0 158#0000040500000010
(1579465198.906203) can0 188#000000010006
(1579465198.906432) can0 1AA#7FFF007FFF00683A
(1579465198.906661) can0 1B0#000F0002000038
(1579465198.906905) can0 1D0#000000000000000A
(1579465198.910968) can0 164#0200002A8E000027
(1579465198.911884) can0 039#001B
(1579465198.912874) can0 305#80AE
(1579465198.913327) can0 136#000000000000001D
(1579465198.913561) can0 13A#0000000000000019
(1579465198.913800) can0 13F#0162016300000011
(1579465198.914042) can0 095#8080080800000037
(1579465198.914304) can0 17C#0000041A00000014
(1579465198.915828) can0 158#000004050000002F
(1579465198.916036) can0 188#000000010015
(1579465198.920996) can0 164#0200002A8E000036
(1579465198.921876) can0 039#002A
(1579465198.923334) can0 136#000000000000002C
(1579465198.923568) can0 13A#0000000000000028
(1579465198.923804) can0 13F#01660164FFE2002D
(1579465198.924049) can0 17C#0000041700000026
(1579465198.924306) can0 095#808008080000000A
(1579465198.924461) can0 1DC#0204173D
(1579465198.925704) can0 1A4#0000000000000009
(1579465198.925960) can0 158#000004050000003E
(1579465198.926175) can0 188#000000010024
(1579465198.926399) can0 1AA#7FFF007FFF00690C
(1579465198.926624) can0 1B0#000F000200000B
(1579465198.926874) can0 1D0#000000000000000A
(1579465198.930835) can0 164#0200002A8E000009
(1579465198.931879) can0 039#0039
(1579465198.933325) can0 136#000000000000003B
(1579465198.933559) can0 13A#0000000000000037
(1579465198.933798) can0 13F#0169016400000037
(1579465198.934047) can0 17C#0000041700000035
(1579465198.934469) can0 095#8080080800000019
(1579465198.935829) can0 158#0000040500000001
(1579465198.936038) can0 188#000000010033
(1579465198.940667) can0 164#0200002A8E000018
(1579465198.940989) can0 294#0496000392B70024
(1579465198.941314) can0 374#2C000000000039
(1579465198.941597) can0 377#0468CE3467003130
(1579465198.941912) can0 378#1042081F1A200037
(1579465198.942050) can0 039#000C
(1579465198.943329) can0 136#000000000000000E
(1579465198.943558) can0 13A#000000000000000A
(1579465198.943807) can0 13F#0163016400000000
(1579465198.944053) can0 17C#0000041700000008
(1579465198.944239) can0 1DC#02041700
(1579465198.944705) can0 095#8080080800000028
(1579465198.945705) can0 1A4#0000000000000018
(1579465198.945954) can0 158#0000040400000011
(1579465198.946176) can0 188#000000010006
(1579465198.946401) can0 1AA#7FFF007FFF00691B
(1579465198.946627) can0 1B0#000F000200001A
(1579465198.946877) can0 1D0#000000000000000A
(1579465198.950938) can0 164#0200002A8E000027
(1579465198.951876) can0 039#001B
(1579465198.953326) can0 136#000000000000001D
(1579465198.953558) can0 13A#0000000000000019
(1579465198.953796) can0 13F#016201630014001C
(1579465198.954042) can0 17C#0000041900000015
(1579465198.954954) can0 095#808008040000003B
(1579465198.955823) can0 158#0000040400000020
(1579465198.956030) can0 188#000000010015
(1579465198.960661) can0 164#0200002A8E000036
(1579465198.961877) can0 039#002A
(1579465198.963330) can0 136#000000000000002C
(1579465198.963564) can0 13A#0000000000000028
(1579465198.963803) can0 13F#0162016300000020
(1579465198.964050) can0 17C#0000041900000024
(1579465198.964237) can0 1DC#0204191D
(1579465198.965212) can0 095#808008080000000A
(1579465198.965695) can0 1A4#0000000000000027
(1579465198.965944) can0 158#000004040000003F
(1579465198.966149) can0 188#000000010024
(1579465198.966389) can0 1AA#7FFF007FFF00692A
(1579465198.966617) can0 1B0#000F0002000029
(1579465198.966867) can0 1D0#000000000000000A
(1579465198.968886) can0 333#0000000000000F
(1579465198.971065) can0 164#0200002A8F000008
(1579465198.971877) can0 039#0039
(1579465198.973312) can0 136#000000000000003B
(1579465198.973555) can0 13A#0000000000000037
(1579465198.973795) can0 13F#016501630000003C
(1579465198.974042) can0 17C#0000041900000033
(1579465198.975443) can0 095#8080080800000019
(1579465198.975822) can0 158#0000040400000002
(1579465198.976018) can0 188#000000010033
(1579465198.980774) can0 164#0200002A8E000018
(1579465198.981084) can0 294#0496000392B70033
(1579465198.981883) can0 039#000C
(1579465198.983344) can0 136#000000000000000E
(1579465198.983563) can0 13A#000000000000000A
(1579465198.983803) can0 13F#016101620014000F
(1579465198.984049) can0 17C#0000041B00000004
(1579465198.984232) can0 1DC#02041B2A
(1579465198.984371) can0 320#000021
(1579465198.984603) can0 324#6235098E0000002E
(1579465198.984846) can0 3D7#B000000000000051
(1579465198.985683) can0 095#808008040000002C
(1579465198.985930) can0 158#0000040400000011
(1579465198.986136) can0 188#000000010006
(1579465198.986384) can0 1A4#0000000000000036
(1579465198.986626) can0 1AA#7FFF007FFF006939
(1579465198.986852) can0 1B0#000F0002000038
(1579465198.987102) can0 1D0#000000000000000A
(1579465198.991121) can0 164#0200002A8F000026
(1579465198.991875) can0 039#001B
(1579465198.993308) can0 136#000000000000001D
(1579465198.993554) can0 13A#0000000000000019
(1579465198.993797) can0 13F#0161016200000013
(1579465198.994042) can0 17C#0000041B00000013
(1579465198.995821) can0 158#0000040400000020
(1579465198.996053) can0 095#8080080800000037
(1579465198.996260) can0 188#000000010015
(1579465199.001779) can0 164#0200002A8E000036
(1579465199.001920) can0 039#002A
(1579465199.003329) can0 136#000000000000002C
(1579465199.003562) can0 13A#0000000000000028
(1579465199.003801) can0 13F#0161016200000022
(1579465199.004047) can0 17C#0000041B00000022
(1579465199.004231) can0 1DC#02041B39
(1579465199.005683) can0 1A4#0000000000000009
(1579465199.005931) can0 158#000004050000003E
(1579465199.006183) can0 095#808008080000000A
(1579465199.006382) can0 188#000000010024
(1579465199.006623) can0 1AA#7FFF007FFF00680D
(1579465199.006853) can0 1B0#000F000200000B
(1579465199.007102) can0 1D0#000000000000000A
(1579465199.010904) can0 164#0200002A8F000008
(1579465199.011885) can0 039#0039
(1579465199.012870) can0 305#80BD
(1579465199.013308) can0 136#000000000000003B
(1579465199.013553) can0 13A#0000000000000037
(1579465199.013796) can0 13F#01630164FFE2003F
(1579465199.014044) can0 17C#0000041800000034
(1579465199.015816) can0 158#0000040500000001
(1579465199.016024) can0 188#000000010033
(1579465199.016417) can0 095#8080080800000019
(1579465199.020732) can0 164#0200002A8E000018
(1579465199.021042) can0 294#0496000392B70006
(1579465199.021874) can0 039#000C
(1579465199.023308) can0 136#000000000000000E
(1579465199.023551) can0 13A#000000000000000A
(1579465199.023794) can0 13F#016E016400000005
(1579465199.024042) can0 17C#0000041800000007
(1579465199.024228) can0 1DC#0204180F
(1579465199.025689) can0 1A4#0000000000000018
(1579465199.025932) can0 158#0000040500000010
(1579465199.026138) can0 188#000000010006
(1579465199.026383) can0 1AA#7FFF007FFF00681C
(1579465199.026609) can0 1B0#000F000200001A
(1579465199.026850) can0 095#8080080800000028
(1579465199.027096) can0 1D0#000000000000000A
(1579465199.030875) can0 164#0200002A8E000027
(1579465199.031873) can0 039#001B
(1579465199.033307) can0 136#000000000000001D
(1579465199.033553) can0 13A#0000000000000019
(1579465199.033795) can0 13F#01620163000A0017
(1579465199.034042) can0 17C#0000041900000015
(1579465199.035808) can0 158#000004050000002F
(1579465199.036016) can0 188#000000010015
(1579465199.036901) can0 095#8080080800000037
(1579465199.040835) can0 164#0200002A8F000035
(1579465199.041138) can0 374#2C00000000000C
(1579465199.041461) can0 377#0468CE3467003103
(1579465199.041759) can0 378#1042081F1A20000A
(1579465199.041889) can0 039#002A
(1579465199.043324) can0 136#000000000000002C
(1579465199.043557) can0 13A#0000000000000028
(1579465199.043799) can0 13F#016501630000002D
(1579465199.044045) can0 17C#0000041900000024
(1579465199.044232) can0 1DC#0204191D
(1579465199.045688) can0 1A4#0000000000000027
(1579465199.045931) can0 158#000004040000003F
(1579465199.046137) can0 188#000000010024
(1579465199.046378) can0 1AA#7FFF007FFF00692A
(1579465199.046605) can0 1B0#000F0002000029
(1579465199.046860) can0 1D0#000000000000000A
(1579465199.047137) can0 095#808008040000000E
(1579465199.050967) can0 164#0200002A8E000009
(1579465199.051870) can0 039#0039
(1579465199.053310) can0 136#000000000000003B
(1579465199.053546) can0 13A#0000000000000037
(1579465199.053791) can0 13F#0168016300000039
(1579465199.054036) can0 17C#0000041900000033
(1579465199.055844) can0 158#0000040400000002
(1579465199.056044) can0 188#000000010033
(1579465199.057390) can0 095#808008040000001D
(1579465199.060777) can0 164#0200002A8E000018
(1579465199.061092) can0 294#0496000392B70015
(1579465199.061873) can0 039#000C
(1579465199.063308) can0 136#000000000000000E
(1579465199.063551) can0 13A#000000000000000A
(1579465199.063797) can0 13F#0162016300000002
(1579465199.064045) can0 17C#0000041900000006
(1579465199.064229) can0 1DC#0204192C
(1579465199.065763) can0 1A4#0000000000000036
(1579465199.065966) can0 158#0000040400000011
(1579465199.066183) can0 188#000000010006
(1579465199.066417) can0 1AA#7FFF007FFF00683A
(1579465199.066641) can0 1B0#000F0002000038
(1579465199.066897) can0 1D0#000000000000000A
(1579465199.067631) can0 095#808008040000002C
(1579465199.068987) can0 333#0000000000001E
(1579465199.071073) can0 164#0200002A8E000027
(1579465199.071872) can0 039#001B
(1579465199.073308) can0 136#000000000000001D
(1579465199.073550) can0 13A#0000000000000019
(1579465199.073792) can0 13F#0162016300000011
(1579465199.074037) can0 17C#0000041900000015
(1579465199.075803) can0 158#000004050000002F
(1579465199.076011) can0 188#000000010015
(1579465199.077874) can0 095#8080080800000037
(1579465199.080767) can0 164#0200002A8E000036
(1579465199.081873) can0 039#002A
(1579465199.083342) can0 136#000000000000002C
(1579465199.083579) can0 13A#0000000000000028
(1579465199.083822) can0 13F#016501630000002D
(1579465199.084067) can0 17C#0000041900000024
(1579465199.084250) can0 1DC#0204193B
(1579465199.084395) can0 320#000030
(1579465199.084625) can0 324#6235098F0000003C
(1579465199.085705) can0 1A4#0000000000000009
(1579465199.085954) can0 158#000004050000003E
(1579465199.086175) can0 188#000000010024
(1579465199.086404) can0 1AA#7FFF007FFF00690C
(1579465199.086624) can0 1B0#000F000200000B
(1579465199.086876) can0 1D0#000000000000000A
(1579465199.088119) can0 095#808008080000000A
(1579465199.091184) can0 164#0200002A8F000008
(1579465199.091874) can0 039#0039
(1579465199.093308) can0 136#000000000000003B
(1579465199.093548) can0 13A#0000000000000037
(1579465199.093792) can0 13F#01670166FFCE003F
(1579465199.094040) can0 17C#0000041400000038
(1579465199.095801) can0 158#0000040500000001
(1579465199.096003) can0 188#000000010033
(1579465199.098372) can0 095#808008040000001D
(1579465199.101805) can0 164#0200002A8E000018
(1579465199.101946) can0 039#000C
(1579465199.102183) can0 294#0496000392B70024
(1579465199.103307) can0 136#000000000000000E
(1579465199.103548) can0 13A#000000000000000A
(1579465199.103790) can0 13F#016401660000000D
(1579465199.104037) can0 17C#000004140000000B
(1579465199.104225) can0 1DC#02041403
(1579465199.105698) can0 1A4#0000000000000018
(1579465199.105944) can0 158#0000040400000011
(1579465199.106148) can0 188#000000010006
(1579465199.106397) can0 1AA#7FFF007FFF00691B
(1579465199.106618) can0 1B0#000F000200001A
(1579465199.106868) can0 1D0#000000000000000A
(1579465199.108609) can0 095#808008040000002C
(1579465199.110917) can0 164#0200002A8E000027
(1579465199.111880) can0 039#001B
(1579465199.112870) can0 305#8080
(1579465199.113307) can0 136#000000000000001D
(1579465199.113548) can0 13A#0000000000000019
(1579465199.113787) can0 13F#016401650000001D
(1579465199.114035) can0 17C#000004140000001A
(1579465199.115800) can0 158#0000040400000020
(1579465199.116010) can0 188#000000010015
(1579465199.118851) can0 095#808008040000003B
(1579465199.120883) can0 164#0200002A8E000036
(1579465199.121872) can0 039#002A
(1579465199.123308) can0 136#000000000000002C
(1579465199.123552) can0 13A#0000000000000028
(1579465199.123792) can0 13F#01640165000A0022
(1579465199.124037) can0 17C#0000041500000028
(1579465199.124218) can0 1DC#02041511
(1579465199.125698) can0 1A4#0000000000000027
(1579465199.125946) can0 158#0000040300000030
(1579465199.126151) can0 188#000000010024
(1579465199.126397) can0 1AA#7FFF007FFF00692A
(1579465199.126614) can0 1B0#000F0002000029
(1579465199.126863) can0 1D0#000000000000000A
(1579465199.129097) can0 095#808008040000000E
(1579465199.130929) can0 164#0200002A8E000009
(1579465199.131874) can0 039#0039
(1579465199.133309) can0 136#000000000000003B
(1579465199.133545) can0 13A#0000000000000037
(1579465199.133787) can0 13F#016401650000003B
(1579465199.134035) can0 17C#0000041500000037
(1579465199.135794) can0 158#0000040300000003
(1579465199.136001) can0 188#000000010033
(1579465199.139353) can0 095#808008040000001D
(1579465199.140669) can0 164#0200002A8E000018
(1579465199.140993) can0 294#0496000392B70033
(1579465199.141306) can0 374#2C00000000001B
(1579465199.141618) can0 377#0468CE3467003112
(1579465199.141918) can0 378#1042081F1A200019
(1579465199.142047) can0 039#000C
(1579465199.142307) can0 405#000004000000001A
(1579465199.142597) can0 428#0004000000191B
(1579465199.143307) can0 136#000000000000000E
(1579465199.143544) can0 13A#000000000000000A
(1579465199.143785) can0 13F#016401650000000E
(1579465199.144030) can0 17C#000004150000000A
(1579465199.144218) can0 1DC#02041520
(1579465199.145798) can0 1A4#0000000000000036
(1579465199.145994) can0 158#0000040400000011
(1579465199.146216) can0 188#000000010006
(1579465199.146443) can0 1AA#7FFF007FFF006939
(1579465199.146665) can0 1B0#000F0002000038
(1579465199.146916) can0 1D0#000000000000000A
(1579465199.149579) can0 095#8080080800000028
(1579465199.151035) can0 164#0200002A8E000027
(1579465199.151879) can0 039#001B
(1579465199.153307) can0 136#000000000000001D
(1579465199.153545) can0 13A#0000000000000019
(1579465199.153785) can0 13F#01640165FFF6001A
(1579465199.154029) can0 17C#000004140000001A
(1579465199.155792) can0 158#0000040300000021
(1579465199.155999) can0 188#000000010015
(1579465199.159828) can0 095#8080080800000037
(1579465199.160756) can0 164#0200002A8F000035
(1579465199.161872) can0 039#002A
(1579465199.163307) can0 136#000000000000002C
(1579465199.163549) can0 13A#0000000000000028
(1579465199.163792) can0 13F#016401650000002C
(1579465199.164037) can0 17C#0000041400000029
(1579465199.164219) can0 1DC#02041430
(1579465199.165702) can0 1A4#0000000000000009
(1579465199.165954) can0 158#0000040300000030
(1579465199.166154) can0 188#000000010024
(1579465199.166396) can0 1AA#7FFF007FFF00690C
(1579465199.166623) can0 1B0#000F000200000B
(1579465199.166872) can0 1D0#000000000000000A
(1579465199.168916) can0 333#0000000000002D
(1579465199.170074) can0 095#808008080000000A
(1579465199.170904) can0 164#0200002A8E000009
(1579465199.171872) can0 039#0039
(1579465199.173344) can0 136#000000000000003B
(1579465199.173566) can0 13A#0000000000000037
(1579465199.173803) can0 13F#016401650000003B
(1579465199.174051) can0 17C#0000041400000038
(1579465199.175792) can0 158#0000040200000004
(1579465199.175993) can0 188#000000010033
(1579465199.180326) can0 095#808008040000001D
(1579465199.180723) can0 164#0200002A8E000018
(1579465199.181036) can0 294#0496000392B70006
(1579465199.181871) can0 039#000C
(1579465199.183315) can0 136#000000000000000E
(1579465199.183554) can0 13A#000000000000000A
(1579465199.183792) can0 13F#016A0165000A000E
(1579465199.184040) can0 17C#000004150000000A
(1579465199.184220) can0 1DC#02041502
(1579465199.184378) can0 320#000003
(1579465199.184596) can0 324#6235098F0000000F
(1579465199.184845) can0 3D7#B000000000000024
(1579465199.185076) can0 40C#033335383533000E
(1579465199.185275) can0 454#63F2024B220C
(1579465199.185502) can0 465#FFFFFFFFFFFF05
(1579465199.185807) can0 1A4#0000000000000018
(1579465199.185999) can0 158#0000040200000013
(1579465199.186224) can0 188#000000010006
(1579465199.186451) can0 1AA#7FFF007FFF00691B
(1579465199.186562) can0 6C1#32
(1579465199.186787) can0 1B0#000F000200001A
(1579465199.187040) can0 1D0#000000000000000A
(1579465199.190553) can0 095#8080080800000028
(1579465199.191495) can0 164#0200002A8E000027
(1579465199.191869) can0 039#001B
(1579465199.193306) can0 136#000000000000001D
(1579465199.193542) can0 13A#0000000000000019
(1579465199.193781) can0 13F#016701650000001A
(1579465199.194029) can0 17C#0000041500000019
(1579465199.195822) can0 158#0000040200000022
(1579465199.195997) can0 188#000000010015
(1579465199.200800) can0 095#8080080800000037
(1579465199.201705) can0 164#0200002A8F000035
(1579465199.201870) can0 039#002A
(1579465199.203307) can0 136#000000000000002C
(1579465199.203546) can0 13A#0000000000000028
(1579465199.203792) can0 13F#016401640000002D
(1579465199.204042) can0 17C#0000041500000028
(1579465199.204218) can0 1DC#02041511
(1579465199.205704) can0 1A4#0000000000000027
(1579465199.205953) can0 158#0000040300000030
(1579465199.206157) can0 188#000000010024
(1579465199.206398) can0 1AA#7FFF007FFF00692A
(1579465199.206620) can0 1B0#000F0002000029
(1579465199.206870) can0 1D0#000000000000000A
(1579465199.210933) can0 164#0200002A8E000009
(1579465199.211182) can0 095#808008080000000A
(1579465199.211877) can0 039#0039
(1579465199.212865) can0 305#809F
(1579465199.213310) can0 136#000000000000003B
(1579465199.213542) can0 13A#0000000000000037
(1579465199.213777) can0 13F#01660163001E003C
(1579465199.214025) can0 17C#0000041800000034
(1579465199.215823) can0 158#0000040200000004
(1579465199.216024) can0 188#000000010033
(1579465199.220730) can0 164#0200002A8E000018
(1579465199.221041) can0 294#0496000392B70015
(1579465199.221302) can0 095#8080080800000019
(1579465199.221869) can0 039#000C
(1579465199.223306) can0 136#000000000000000E
(1579465199.223541) can0 13A#000000000000000A
(1579465199.223791) can0 13F#016601630000000E
(1579465199.224029) can0 17C#0000041800000007
(1579465199.224214) can0 1DC#0204182D
(1579465199.225793) can0 1A4#0000000000000036
(1579465199.225990) can0 158#0000040200000013
(1579465199.226219) can0 188#000000010006
(1579465199.226445) can0 1AA#7FFF007FFF006939
(1579465199.226667) can0 1B0#000F0002000038
(1579465199.226917) can0 1D0#000000000000000A
(1579465199.230885) can0 164#0200002A8E000027
(1579465199.231527) can0 095#8080080800000028
(1579465199.231868) can0 039#001B
(1579465199.233305) can0 136#000000000000001D
(1579465199.233542) can0 13A#0000000000000019
(1579465199.233782) can0 13F#0164016200280016
(1579465199.234028) can0 17C#0000041C00000012
(1579465199.235815) can0 158#0000040200000022
(1579465199.236013) can0 188#000000010015
(1579465199.240672) can0 164#0200002A8E000036
(1579465199.240972) can0 374#2C00000000002A
(1579465199.241274) can0 377#0468CE3467003121
(1579465199.241589) can0 378#1042081F1A200028
(1579465199.241832) can0 095#808008040000003B
(1579465199.241971) can0 039#002A
(1579465199.243312) can0 136#000000000000002C
(1579465199.243544) can0 13A#0000000000000028
(1579465199.243786) can0 13F#0161016200000022
(1579465199.244030) can0 17C#0000041C00000021
(1579465199.244212) can0 1DC#02041C38
(1579465199.245690) can0 1A4#0000000000000009
(1579465199.245939) can0 158#0000040300000030
(1579465199.246142) can0 188#000000010024
(1579465199.246387) can0 1AA#7FFF007FFF00680D
(1579465199.246613) can0 1B0#000F000200000B
(1579465199.246863) can0 1D0#000000000000000A
(1579465199.250936) can0 164#0200002A8E000009
(1579465199.251872) can0 039#0039
(1579465199.252112) can0 095#808008080000000A
(1579465199.253306) can0 136#000000000000003B
(1579465199.253537) can0 13A#0000000000000037
(1579465199.253781) can0 13F#0161016200000031
(1579465199.254031) can0 17C#0000041C00000030
(1579465199.255816) can0 158#0000040400000002
(1579465199.256015) can0 188#000000010033
(1579465199.260696) can0 164#0200002A8E000018
(1579465199.261005) can0 294#0496000392B70024
(1579465199.261869) can0 039#000C
(1579465199.262259) can0 095#8080080800000019
(1579465199.263311) can0 136#000000000000000E
(1579465199.263537) can0 13A#000000000000000A
(1579465199.263781) can0 13F#01660160001E0002
(1579465199.264031) can0 17C#0000041F00000000
(1579465199.264218) can0 1DC#02041F08
(1579465199.265698) can0 1A4#0000000000000018
(1579465199.265944) can0 158#0000040400000011
(1579465199.266148) can0 188#000000010006
(1579465199.266393) can0 1AA#7FFF007FFF00681C
(1579465199.266618) can0 1B0#000F000200001A
(1579465199.266868) can0 1D0#000000000000000A
(1579465199.269002) can0 333#0000000000003C
(1579465199.271098) can0 164#0200002A8E000027
(1579465199.271869) can0 039#001B
(1579465199.272505) can0 095#8080080800000028
(1579465199.273305) can0 136#000000000000001D
(1579465199.273537) can0 13A#0000000000000019
(1579465199.273783) can0 13F#0160016000000016
(1579465199.274032) can0 17C#0000041F0000001F
(1579465199.275812) can0 158#0000040400000020
(1579465199.276011) can0 188#000000010015
(1579465199.280822) can0 164#0200002A8E000036
(1579465199.281869) can0 039#002A
(1579465199.282745) can0 095#8080080800000037
(1579465199.283311) can0 136#000000000000002C
(1579465199.283544) can0 13A#0000000000000028
(1579465199.283792) can0 13F#0160016000000025
(1579465199.284042) can0 17C#0000041F0000002E
(1579465199.284225) can0 1DC#02041F17
(1579465199.284366) can0 320#000012
(1579465199.284603) can0 324#623509900000001C
(1579465199.285702) can0 1A4#0000000000000027
(1579465199.285947) can0 158#000004050000003E
(1579465199.286149) can0 188#000000010024
(1579465199.286390) can0 1AA#7FFF007FFF00692A
(1579465199.286614) can0 1B0#000F0002000029
(1579465199.286864) can0 1D0#000000000000000A
(1579465199.291047) can0 164#0200002A8F000008
(1579465199.291865) can0 039#0039
(1579465199.292985) can0 095#808008040000000E
(1579465199.293303) can0 136#000000000000003B
(1579465199.293531) can0 13A#0000000000000037
(1579465199.293771) can0 13F#0162015E001E0036
(1579465199.294017) can0 17C#0000042200000039
(1579465199.295815) can0 158#0000040500000001
(1579465199.295975) can0 188#000000010033
(1579465199.301806) can0 164#0200002A8E000018
(1579465199.301948) can0 039#000C
(1579465199.302182) can0 294#0496000392B70033
(1579465199.303249) can0 095#8080080800000019
(1579465199.303476) can0 136#000000000000000E
(1579465199.303723) can0 13A#000000000000000A
(1579465199.303963) can0 13F#0162015E00000008
(1579465199.304221) can0 17C#000004220000000C
(1579465199.304373) can0 1DC#02042222
(1579465199.305761) can0 1A4#0000000000000036
(1579465199.305998) can0 158#000004060000001F
(1579465199.306219) can0 188#000000010006
(1579465199.306447) can0 1AA#7FFF007FFF006939
(1579465199.306668) can0 1B0#000F0002000038
(1579465199.306921) can0 1D0#000000000000000A
(1579465199.310948) can0 164#0200002A8E000027
(1579465199.311875) can0 039#001B
(1579465199.312865) can0 305#80AE
(1579465199.313300) can0 136#000000000000001D
(1579465199.313524) can0 095#8080080800000028
(1579465199.313774) can0 13A#0000000000000019
(1579465199.314017) can0 13F#015F015E0000001B
(1579465199.314264) can0 17C#000004220000001B
(1579465199.315801) can0 158#000004070000002D
(1579465199.315999) can0 188#000000010015
(1579465199.320965) can0 164#0200002A8E000036
(1579465199.321870) can0 039#002A
(1579465199.323305) can0 136#000000000000002C
(1579465199.323540) can0 13A#0000000000000028
(1579465199.323778) can0 095#8080080800000037
(1579465199.324020) can0 13F#0162015FFFEC002D
(1579465199.324267) can0 17C#000004200000002C
(1579465199.324438) can0 1DC#02042033
(1579465199.325689) can0 1A4#0000000000000009
(1579465199.325932) can0 158#000004090000003A
(1579465199.326139) can0 188#000000010024
(1579465199.326382) can0 1AA#7FFF007FFF00680D
(1579465199.326607) can0 1B0#000F000200000B
(1579465199.326858) can0 1D0#000000000000000A
(1579465199.330859) can0 164#0200002A8E000009
(1579465199.331869) can0 039#0039
(1579465199.333299) can0 136#000000000000003B
(1579465199.333531) can0 13A#0000000000000037
(1579465199.333775) can0 13F#0165015F00000031
(1579465199.334018) can0 095#808008080000000A
(1579465199.334265) can0 17C#000004200000003B
(1579465199.335800) can0 158#000004090000000D
(1579465199.336001) can0 188#000000010033
(1579465199.340928) can0 164#0200002A8F000017
(1579465199.341255) can0 294#0496000392B70006
(1579465199.341549) can0 374#2C000000000039
(1579465199.341870) can0 377#0468CE3467003130
(1579465199.341985) can0 039#000C
(1579465199.342253) can0 378#1042081F1A200037
(1579465199.343300) can0 136#000000000000000E
(1579465199.343532) can0 13A#000000000000000A
(1579465199.343776) can0 13F#0165015F00000004
(1579465199.344022) can0 17C#000004200000000E
(1579465199.344265) can0 095#8080080800000019
(1579465199.344433) can0 1DC#02042006
(1579465199.345706) can0 1A4#0000000000000018
(1579465199.345961) can0 158#000004090000001C
(1579465199.346156) can0 188#000000010006
(1579465199.346399) can0 1AA#7FFF007FFF00691B
(1579465199.346625) can0 1B0#000F000200001A
(1579465199.346875) can0 1D0#000000000000000A
(1579465199.351009) can0 164#0200002A8E000027
(1579465199.351865) can0 039#001B
(1579465199.353299) can0 136#000000000000001D
(1579465199.353531) can0 13A#0000000000000019
(1579465199.353772) can0 13F#015F015F000A0010
(1579465199.354018) can0 17C#000004210000001C
(1579465199.354454) can0 095#808008040000002C
(1579465199.355793) can0 158#000004090000002B
(1579465199.355991) can0 188#000000010015
(1579465199.360752) can0 164#0200002A8E000036
(1579465199.361870) can0 039#002A
(1579465199.363302) can0 136#000000000000002C
(1579465199.363537) can0 13A#0000000000000028
(1579465199.363780) can0 13F#015F015F00000029
(1579465199.364026) can0 17C#000004210000002B
(1579465199.364218) can0 1DC#02042114
(1579465199.364698) can0 095#808008040000003B
(1579465199.365703) can0 1A4#0000000000000027
(1579465199.365948) can0 158#000004090000003A
(1579465199.366152) can0 188#000000010024
(1579465199.366391) can0 1AA#7FFF007FFF00692A
(1579465199.366618) can0 1B0#000F0002000029
(1579465199.366867) can0 1D0#000000000000000A
(1579465199.368986) can0 333#0000000000000F
(1579465199.370906) can0 164#0200002A8E000009
(1579465199.371869) can0 039#0039
(1579465199.373282) can0 136#000000000000003B
(1579465199.373530) can0 13A#0000000000000037
(1579465199.373774) can0 13F#0162015F00000034
(1579465199.374020) can0 17C#000004210000003A
(1579465199.374941) can0 095#808008040000000E
(1579465199.375795) can0 158#0000040A0000000C
(1579465199.376023) can0 188#000000010033
(1579465199.380801) can0 164#0200002A8E000018
(1579465199.381112) can0 294#0496000392B70015
(1579465199.381876) can0 039#000C
(1579465199.383303) can0 136#000000000000000E
(1579465199.383535) can0 13A#000000000000000A
(1579465199.383773) can0 13F#01610161FFC40007
(1579465199.384020) can0 17C#0000041B00000004
(1579465199.384203) can0 1DC#02041B2A
(1579465199.384350) can0 320#000021
(1579465199.384579) can0 324#623509900000002B
(1579465199.384823) can0 3D7#B00000000000007F
(1579465199.385184) can0 095#8080080800000019
(1579465199.385787) can0 1A4#0000000000000036
(1579465199.385987) can0 158#0000040B0000001A
(1579465199.386210) can0 188#000000010006
(1579465199.386440) can0 1AA#7FFF007FFF00683A
(1579465199.386662) can0 1B0#000F0002000038
(1579465199.386915) can0 1D0#000000000000000A
(1579465199.391335) can0 164#0200002A8F000026
(1579465199.391864) can0 039#001B
(1579465199.393280) can0 136#000000000000001D
(1579465199.393527) can0 13A#0000000000000019
(1579465199.393767) can0 13F#0161016100000014
(1579465199.394013) can0 17C#0000041B00000013
(1579465199.395424) can0 095#8080080800000028
(1579465199.395785) can0 158#0000040A0000002A
(1579465199.395965) can0 188#000000010015
(1579465199.401778) can0 164#0200002B8E000035
(1579465199.401920) can0 039#002A
(1579465199.403300) can0 136#000000000000002C
(1579465199.403535) can0 13A#0000000000000028
(1579465199.403775) can0 13F#0161016100000023
(1579465199.404021) can0 17C#0000041B00000022
(1579465199.404217) can0 1DC#02041B39
(1579465199.405669) can0 095#8080080800000037
(1579465199.405917) can0 158#0000040A00000039
(1579465199.406122) can0 188#000000010024
(1579465199.406375) can0 1A4#0000000000000009
(1579465199.406610) can0 1AA#7FFF007FFF00690C
(1579465199.406840) can0 1B0#000F000200000B
(1579465199.407091) can0 1D0#000000000000000A
(1579465199.410888) can0 164#0200002B8E000008
(1579465199.411882) can0 039#0039
(1579465199.412860) can0 305#80BD
(1579465199.413280) can0 136#000000000000003B
(1579465199.413528) can0 13A#0000000000000037
(1579465199.413769) can0 13F#01630163FFD8003B
(1579465199.414018) can0 17C#0000041700000035
(1579465199.415788) can0 158#000004090000000D
(1579465199.415991) can0 095#808008080000000A
(1579465199.416217) can0 188#000000010033
(1579465199.420726) can0 164#0200002B8E000017
(1579465199.421027) can0 294#0496000392B70024
(1579465199.421864) can0 039#000C
(1579465199.423281) can0 136#000000000000000E
(1579465199.423525) can0 13A#000000000000000A
(1579465199.423767) can0 13F#0163016300000001
(1579465199.424013) can0 17C#0000041700000008
(1579465199.424192) can0 1DC#02041700
(1579465199.425677) can0 1A4#0000000000000018
(1579465199.425922) can0 158#000004090000001C
(1579465199.426178) can0 095#8080080800000019
(1579465199.426376) can0 188#000000010006
(1579465199.426613) can0 1AA#7FFF007FFF00681C
(1579465199.426842) can0 1B0#000F000200001A
(1579465199.427092) can0 1D0#000000000000000A
(1579465199.430983) can0 164#0200002B8E000026
(1579465199.431865) can0 039#001B
(1579465199.433277) can0 136#000000000000001D
(1579465199.433525) can0 13A#0000000000000019
(1579465199.433767) can0 13F#016301640000001F
(1579465199.434017) can0 17C#0000041700000017
(1579465199.435780) can0 158#000004090000002B
(1579465199.435969) can0 188#000000010015
(1579465199.436398) can0 095#8080080800000028
(1579465199.440775) can0 164#0200002B8E000035
(1579465199.441099) can0 374#2C00000000000C
(1579465199.441400) can0 377#0468CE3467003103
(1579465199.441718) can0 378#1042081F1A20000A
(1579465199.441877) can0 039#002A
(1579465199.442110) can0 405#0000040000000029
(1579465199.442407) can0 428#0004000000192A
(1579465199.443299) can0 136#000000000000002C
(1579465199.443530) can0 13A#0000000000000028
(1579465199.443773) can0 13F#016601640000002B
(1579465199.444017) can0 17C#0000041700000026
(1579465199.444203) can0 1DC#0204171F
(1579465199.445688) can0 1A4#0000000000000027
(1579465199.445930) can0 158#000004080000003B
(1579465199.446136) can0 188#000000010024
(1579465199.446382) can0 1AA#7FFF007FFF00682B
(1579465199.446604) can0 1B0#000F0002000029
(1579465199.446843) can0 095#8080080800000037
(1579465199.447093) can0 1D0#000000000000000A
(1579465199.451023) can0 164#0200002B8F000007
(1579465199.451869) can0 039#0039
(1579465199.453277) can0 136#000000000000003B
(1579465199.453524) can0 13A#0000000000000037
(1579465199.453764) can0 13F#0169016400000037
(1579465199.454012) can0 17C#0000041700000035
(1579465199.455766) can0 158#000004070000000F
(1579465199.455947) can0 188#000000010033
(1579465199.456888) can0 095#808008080000000A
(1579465199.460703) can0 164#0200002B8E000017
(1579465199.461010) can0 294#0496000392B70033
(1579465199.461862) can0 039#000C
(1579465199.463277) can0 136#000000000000000E
(1579465199.463522) can0 13A#000000000000000A
(1579465199.463762) can0 13F#016101620028000A
(1579465199.464008) can0 17C#0000041B00000004
(1579465199.464183) can0 1DC#02041B2A
(1579465199.465765) can0 1A4#0000000000000036
(1579465199.465979) can0 158#000004070000001E
(1579465199.466189) can0 188#000000010006
(1579465199.466424) can0 1AA#7FFF007FFF006939
(1579465199.466648) can0 1B0#000F0002000038
(1579465199.466896) can0 1D0#000000000000000A
(1579465199.467137) can0 095#808008040000001D
(1579465199.468939) can0 333#0000000000001E
(1579465199.470944) can0 164#0200002B8E000026
(1579465199.471863) can0 039#001B
(1579465199.473276) can0 136#000000000000001D
(1579465199.473524) can0 13A#0000000000000019
(1579465199.473765) can0 13F#0164016200000010
(1579465199.474011) can0 17C#0000041B00000013
(1579465199.475761) can0 158#000004070000002D
(1579465199.475943) can0 188#000000010015
(1579465199.477376) can0 095#808008040000002C
(1579465199.480792) can0 164#0200002B8F000034
(1579465199.481862) can0 039#002A
(1579465199.483305) can0 136#000000000000002C
(1579465199.483541) can0 13A#0000000000000028
(1579465199.483778) can0 13F#0161016200000022
(1579465199.484025) can0 17C#0000041B00000022
(1579465199.484211) can0 1DC#02041B39
(1579465199.484356) can0 320#000030
(1579465199.484586) can0 324#623509900000003A
(1579465199.484840) can0 40C#0000000004000013
(1579465199.485037) can0 454#63F2024B221B
(1579465199.485264) can0 465#FFFFFFFFFFFF14
(1579465199.485351) can0 6C1#05
(1579465199.485697) can0 1A4#0000000000000009
(1579465199.485946) can0 158#000004070000003C
(1579465199.486152) can0 188#000000010024
(1579465199.486392) can0 1AA#7FFF007FFF00690C
(1579465199.486617) can0 1B0#000F000200000B
(1579465199.486868) can0 1D0#000000000000000A
(1579465199.487619) can0 095#808008040000003B
(1579465199.491231) can0 164#0200002B8E000008
(1579465199.491864) can0 039#0039
(1579465199.493274) can0 136#000000000000003B
(1579465199.493521) can0 13A#0000000000000037
(1579465199.493758) can0 13F#016101610014003D
(1579465199.494007) can0 17C#0000041D0000003F
(1579465199.495764) can0 158#000004070000000F
(1579465199.495939) can0 188#000000010033
(1579465199.497863) can0 095#808008080000000A
(1579465199.501674) can0 164#0200002A8E000018
(1579465199.501861) can0 039#000C
(1579465199.502097) can0 294#0496000392B70006
(1579465199.503274) can0 136#000000000000000E
(1579465199.503519) can0 13A#000000000000000A
(1579465199.503759) can0 13F#0161016100000005
(1579465199.504010) can0 17C#0000041D00000002
(1579465199.504183) can0 1DC#02041D0A
(1579465199.505700) can0 1A4#0000000000000018
(1579465199.505946) can0 158#000004070000001E
(1579465199.506150) can0 188#000000010006
(1579465199.506393) can0 1AA#7FFF007FFF00691B
(1579465199.506618) can0 1B0#000F000200001A
(1579465199.506870) can0 1D0#000000000000000A
(1579465199.508104) can0 095#8080080800000019
(1579465199.510994) can0 164#0200002A8E000027
(1579465199.511870) can0 039#001B
(1579465199.512860) can0 305#8080
(1579465199.513271) can0 136#000000000000001D
(1579465199.513519) can0 13A#0000000000000019
(1579465199.513758) can0 13F#0161016100000014
(1579465199.514007) can0 17C#0000041D00000011
(1579465199.515765) can0 158#000004070000002D
(1579465199.515948) can0 188#000000010015
(1579465199.518362) can0 095#8080080800000028
(1579465199.520916) can0 164#0200002A8E000036
(1579465199.521862) can0 039#002A
(1579465199.523278) can0 136#000000000000002C
(1579465199.523525) can0 13A#0000000000000028
(1579465199.523767) can0 13F#0161016100000023
(1579465199.524017) can0 17C#0000041D00000020
(1579465199.524191) can0 1DC#02041D19
(1579465199.525679) can0 1A4#0000000000000027
(1579465199.525927) can0 158#000004070000003C
(1579465199.526134) can0 188#000000010024
(1579465199.526376) can0 1AA#7FFF007FFF00682B
(1579465199.526604) can0 1B0#000F0002000029
(1579465199.526852) can0 1D0#000000000000000A
(1579465199.528594) can0 095#808008040000003B
(1579465199.530845) can0 164#0200002A8E000009
(1579465199.531863) can0 039#0039
(1579465199.533271) can0 136#000000000000003B
(1579465199.533518) can0 13A#0000000000000037
(1579465199.533762) can0 13F#016401610000003F
(1579465199.534010) can0 17C#0000041D0000003F
(1579465199.535768) can0 158#000004080000000E
(1579465199.535970) can0 188#000000010033
(1579465199.538841) can0 095#808008080000000A
(1579465199.540676) can0 164#0200002A8E000018
(1579465199.541000) can0 294#0496000392B70015
(1579465199.541308) can0 374#2C00000000001B
(1579465199.541607) can0 377#0468CE3467003112
(1579465199.541938) can0 378#1042081F1A200019
(1579465199.542053) can0 039#000C
(1579465199.543274) can0 136#000000000000000E
(1579465199.543518) can0 13A#000000000000000A
(1579465199.543757) can0 13F#0161016100000005
(1579465199.544008) can0 17C#0000041D00000002
(1579465199.544184) can0 1DC#02041D28
(1579465199.545765) can0 158#000004080000001D
(1579465199.545969) can0 188#000000010006
(1579465199.546183) can0 1A4#0000000000000036
(1579465199.546415) can0 1AA#7FFF007FFF006939
(1579465199.546636) can0 1B0#000F0002000038
(1579465199.546886) can0 1D0#000000000000000A
(1579465199.549078) can0 095#8080080800000019
(1579465199.550942) can0 164#0200002A8E000027
(1579465199.551857) can0 039#001B
(1579465199.553265) can0 136#000000000000001D
(1579465199.553512) can0 13A#0000000000000019
(1579465199.553750) can0 13F#01610162FFEC001B
(1579465199.553996) can0 17C#0000041B00000013
(1579465199.555762) can0 158#000004080000002C
(1579465199.555972) can0 188#000000010015
(1579465199.559338) can0 095#808008040000002C
(1579465199.560670) can0 164#0200002A8E000036
(1579465199.561862) can0 039#002A
(1579465199.563274) can0 136#000000000000002C
(1579465199.563521) can0 13A#0000000000000028
(1579465199.563761) can0 13F#0161016200000022
(1579465199.564007) can0 17C#0000041B00000022
(1579465199.564183) can0 1DC#02041B39
(1579465199.565672) can0 1A4#0000000000000009
(1579465199.565921) can0 158#000004070000003C
(1579465199.566126) can0 188#000000010024
(1579465199.566376) can0 1AA#7FFF007FFF00680D
(1579465199.566598) can0 1B0#000F000200000B
(1579465199.566846) can0 1D0#000000000000000A
(1579465199.569058) can0 333#0000000000002D
(1579465199.569569) can0 095#8080080800000037
(1579465199.571077) can0 164#0200002A8E000009
(1579465199.571862) can0 039#0039
(1579465199.573267) can0 136#000000000000003B
(1579465199.573515) can0 13A#0000000000000037
(1579465199.573758) can0 13F#016401620000003E
(1579465199.574007) can0 17C#0000041B00000031
(1579465199.575763) can0 158#000004070000000F
(1579465199.575965) can0 188#000000010033
(1579465199.579813) can0 095#808008040000000E
(1579465199.580839) can0 164#0200002A8E000018
(1579465199.581149) can0 294#0496000392B70024
(1579465199.581859) can0 039#000C
(1579465199.583275) can0 136#000000000000000E
(1579465199.583519) can0 13A#000000000000000A
(1579465199.583760) can0 13F#016A0162000A0001
(1579465199.584007) can0 17C#0000041C00000003
(1579465199.584184) can0 1DC#02041C0B
(1579465199.584350) can0 320#000003
(1579465199.584570) can0 324#623509910000000C
(1579465199.584816) can0 3D7#B000000000000006
(1579465199.585707) can0 1A4#0000000000000018
(1579465199.585954) can0 158#000004070000001E
(1579465199.586174) can0 188#000000010006
(1579465199.586400) can0 1AA#7FFF007FFF00691B
(1579465199.586626) can0 1B0#000F000200001A
(1579465199.586877) can0 1D0#000000000000000A
(1579465199.590054) can0 095#8080080800000019
(1579465199.591222) can0 164#0200002A8F000026
(1579465199.591861) can0 039#001B
(1579465199.593267) can0 136#000000000000001D
(1579465199.593514) can0 13A#0000000000000019
(1579465199.593756) can0 13F#0161016200000013
(1579465199.594002) can0 17C#0000041C00000012
(1579465199.595754) can0 158#000004080000002C
(1579465199.595939) can0 188#000000010015
(1579465199.600306) can0 095#8080080800000028
(1579465199.601792) can0 164#0200002A8E000036
(1579465199.601930) can0 039#002A
(1579465199.603272) can0 136#000000000000002C
(1579465199.603518) can0 13A#0000000000000028
(1579465199.603763) can0 13F#0160016000140020
(1579465199.604010) can0 17C#0000041E0000002F
(1579465199.604184) can0 1DC#02041E18
(1579465199.605697) can0 1A4#0000000000000027
(1579465199.605941) can0 158#000004080000003B
(1579465199.606146) can0 188#000000010024
(1579465199.606389) can0 1AA#7FFF007FFF00682B
(1579465199.606611) can0 1B0#000F0002000029
(1579465199.606860) can0 1D0#000000000000000A
(1579465199.610542) can0 095#8080080800000037
(1579465199.610915) can0 164#0200002A8E000009
(1579465199.611869) can0 039#0039
(1579465199.612856) can0 305#809F
(1579465199.613265) can0 136#000000000000003B
(1579465199.613512) can0 13A#0000000000000037
(1579465199.613753) can0 13F#0163016000000031
(1579465199.614004) can0 17C#0000041E0000003E
(1579465199.615754) can0 158#000004080000000E
(1579465199.615964) can0 188#000000010033
(1579465199.620732) can0 164#0200002A8E000018
(1579465199.620973) can0 095#808008080000000A
(1579465199.621229) can0 294#0496000392B70033
(1579465199.621859) can0 039#000C
(1579465199.623267) can0 136#000000000000000E
(1579465199.623512) can0 13A#000000000000000A
(1579465199.623757) can0 13F#0160016000000007
(1579465199.624007) can0 17C#0000041E00000001
(1579465199.624183) can0 1DC#02041E27
(1579465199.625707) can0 158#000004080000001D
(1579465199.625944) can0 188#000000010006
(1579465199.626178) can0 1A4#0000000000000036
(1579465199.626405) can0 1AA#7FFF007FFF006939
(1579465199.626627) can0 1B0#000F0002000038
(1579465199.626877) can0 1D0#000000000000000A
(1579465199.630891) can0 164#0200002A8E000027
(1579465199.631119) can0 095#8080080800000019
(1579465199.631858) can0 039#001B
(1579465199.633265) can0 136#000000000000001D
(1579465199.633512) can0 13A#0000000000000019
(1579465199.633754) can0 13F#015F015F00140015
(1579465199.634002) can0 17C#000004200000001D
(1579465199.635704) can0 158#000004080000002C
(1579465199.635940) can0 188#000000010015
(1579465199.640791) can0 164#0200002A8E000036
(1579465199.641085) can0 374#2C00000000002A
(1579465199.641342) can0 095#808008040000002C
(1579465199.641556) can0 377#0468CE3467003121
(1579465199.641869) can0 378#1042081F1A200028
(1579465199.642013) can0 039#002A
(1579465199.643269) can0 136#000000000000002C
(1579465199.643516) can0 13A#0000000000000028
(1579465199.643761) can0 13F#015F015F00000029
(1579465199.644008) can0 17C#000004200000002C
(1579465199.644183) can0 1DC#02042033
(1579465199.645703) can0 1A4#0000000000000009
(1579465199.645948) can0 158#000004080000003B
(1579465199.646153) can0 188#000000010024
(1579465199.646393) can0 1AA#7FFF007FFF00690C
